#  HZ   S   DB   R     50.00 
! Rohde & Schwarz ZVA67 4Ports - Version 3.60 - 1305.7002k04 SN: 101051
! Date: 2012-04-04 15:42:24
! Measurements: S11 S21 S12 S22 
! 
 8.000000000000000E9    -9.990000000000000E2   0.000000000000000  -6.115466076282258   9.325433637629611E1  -9.990000000000000E2   0.000000000000000  -9.990000000000000E2   0.000000000000000  
 8.020000000000000E9    -9.990000000000000E2   0.000000000000000  -6.316562373121963   5.626523924968398E1  -9.990000000000000E2   0.000000000000000  -9.990000000000000E2   0.000000000000000  
 8.040000000000000E9    -9.990000000000000E2   0.000000000000000  -6.571319220738902   1.701864712832133E1  -9.990000000000000E2   0.000000000000000  -9.990000000000000E2   0.000000000000000  
 8.060000000000000E9    -9.990000000000000E2   0.000000000000000  -7.259371513879544  -2.035511063499031E1  -9.990000000000000E2   0.000000000000000  -9.990000000000000E2   0.000000000000000  
 8.080000000000000E9    -9.990000000000000E2   0.000000000000000  -7.666881350834428  -5.391173625443044E1  -9.990000000000000E2   0.000000000000000  -9.990000000000000E2   0.000000000000000  
 8.100000000000000E9    -9.990000000000000E2   0.000000000000000  -7.427296364925335  -8.816666922958370E1  -9.990000000000000E2   0.000000000000000  -9.990000000000000E2   0.000000000000000  
 8.120000000000000E9    -9.990000000000000E2   0.000000000000000  -7.198480852334660  -1.262031919525336E2  -9.990000000000000E2   0.000000000000000  -9.990000000000000E2   0.000000000000000  
 8.140000000000000E9    -9.990000000000000E2   0.000000000000000  -7.454669149594396  -1.635770008849297E2  -9.990000000000000E2   0.000000000000000  -9.990000000000000E2   0.000000000000000  
 8.160000000000000E9    -9.990000000000000E2   0.000000000000000  -7.537292907197369   1.623417193208032E2  -9.990000000000000E2   0.000000000000000  -9.990000000000000E2   0.000000000000000  
 8.180000000000000E9    -9.990000000000000E2   0.000000000000000  -7.105740095630741   1.274875560992843E2  -9.990000000000000E2   0.000000000000000  -9.990000000000000E2   0.000000000000000  
 8.200000000000000E9    -9.990000000000000E2   0.000000000000000  -6.672697619142086   8.955311649815744E1  -9.990000000000000E2   0.000000000000000  -9.990000000000000E2   0.000000000000000  
 8.220000000000000E9    -9.990000000000000E2   0.000000000000000  -6.596532747935738   5.186241803788533E1  -9.990000000000000E2   0.000000000000000  -9.990000000000000E2   0.000000000000000  
 8.240000000000000E9    -9.990000000000000E2   0.000000000000000  -6.365962723986014   1.614977052450633E1  -9.990000000000000E2   0.000000000000000  -9.990000000000000E2   0.000000000000000  
 8.260000000000000E9    -9.990000000000000E2   0.000000000000000  -5.770521191034491  -2.078249148173818E1  -9.990000000000000E2   0.000000000000000  -9.990000000000000E2   0.000000000000000  
 8.280000000000000E9    -9.990000000000000E2   0.000000000000000  -5.278493111702157  -6.053658878643755E1  -9.990000000000000E2   0.000000000000000  -9.990000000000000E2   0.000000000000000  
 8.300000000000000E9    -9.990000000000000E2   0.000000000000000  -5.154190049257750  -1.001369621848180E2  -9.990000000000000E2   0.000000000000000  -9.990000000000000E2   0.000000000000000  
 8.320000000000000E9    -9.990000000000000E2   0.000000000000000  -5.022520929966958  -1.382695468826479E2  -9.990000000000000E2   0.000000000000000  -9.990000000000000E2   0.000000000000000  
 8.340000000000000E9    -9.990000000000000E2   0.000000000000000  -4.708651788141815  -1.767207016252389E2  -9.990000000000000E2   0.000000000000000  -9.990000000000000E2   0.000000000000000  
 8.360000000000000E9    -9.990000000000000E2   0.000000000000000  -4.429809688253712   1.436375375509023E2  -9.990000000000000E2   0.000000000000000  -9.990000000000000E2   0.000000000000000  
 8.380000000000000E9    -9.990000000000000E2   0.000000000000000  -4.301884629074544   1.035888096226306E2  -9.990000000000000E2   0.000000000000000  -9.990000000000000E2   0.000000000000000  
 8.400000000000000E9    -9.990000000000000E2   0.000000000000000  -4.274212995299365   6.371248319493280E1  -9.990000000000000E2   0.000000000000000  -9.990000000000000E2   0.000000000000000  
 8.420000000000000E9    -9.990000000000000E2   0.000000000000000  -4.309158858145989   2.410040461056951E1  -9.990000000000000E2   0.000000000000000  -9.990000000000000E2   0.000000000000000  
 8.440000000000000E9    -9.990000000000000E2   0.000000000000000  -4.381864823239786  -1.539530207690035E1  -9.990000000000000E2   0.000000000000000  -9.990000000000000E2   0.000000000000000  
 8.460000000000000E9    -9.990000000000000E2   0.000000000000000  -4.547198659387160  -5.471799389373597E1  -9.990000000000000E2   0.000000000000000  -9.990000000000000E2   0.000000000000000  
 8.480000000000000E9    -9.990000000000000E2   0.000000000000000  -4.870548849273741  -9.338479659085519E1  -9.990000000000000E2   0.000000000000000  -9.990000000000000E2   0.000000000000000  
 8.500000000000000E9    -9.990000000000000E2   0.000000000000000  -5.138290768504122  -1.303910211381887E2  -9.990000000000000E2   0.000000000000000  -9.990000000000000E2   0.000000000000000  
 8.520000000000000E9    -9.990000000000000E2   0.000000000000000  -5.157490300304801  -1.672587815903247E2  -9.990000000000000E2   0.000000000000000  -9.990000000000000E2   0.000000000000000  
 8.540000000000000E9    -9.990000000000000E2   0.000000000000000  -5.129220637319047   1.542677524874030E2  -9.990000000000000E2   0.000000000000000  -9.990000000000000E2   0.000000000000000  
 8.560000000000000E9    -9.990000000000000E2   0.000000000000000  -5.352604450264095   1.154455869252669E2  -9.990000000000000E2   0.000000000000000  -9.990000000000000E2   0.000000000000000  
 8.580000000000000E9    -9.990000000000000E2   0.000000000000000  -5.703771008566122   7.820069507960069E1  -9.990000000000000E2   0.000000000000000  -9.990000000000000E2   0.000000000000000  
 8.600000000000000E9    -9.990000000000000E2   0.000000000000000  -5.920212500732152   4.222892658615518E1  -9.990000000000000E2   0.000000000000000  -9.990000000000000E2   0.000000000000000  
 8.620000000000000E9    -9.990000000000000E2   0.000000000000000  -5.978076389874521   6.320809259564603  -9.990000000000000E2   0.000000000000000  -9.990000000000000E2   0.000000000000000  
 8.640000000000000E9    -9.990000000000000E2   0.000000000000000  -5.937078304557748  -2.990134057870817E1  -9.990000000000000E2   0.000000000000000  -9.990000000000000E2   0.000000000000000  
 8.660000000000000E9    -9.990000000000000E2   0.000000000000000  -5.825656406701297  -6.682398398297435E1  -9.990000000000000E2   0.000000000000000  -9.990000000000000E2   0.000000000000000  
 8.680000000000000E9    -9.990000000000000E2   0.000000000000000  -5.828783945403984  -1.047712187743250E2  -9.990000000000000E2   0.000000000000000  -9.990000000000000E2   0.000000000000000  
 8.700000000000000E9    -9.990000000000000E2   0.000000000000000  -6.084718224587262  -1.420392308269867E2  -9.990000000000000E2   0.000000000000000  -9.990000000000000E2   0.000000000000000  
 8.720000000000000E9    -9.990000000000000E2   0.000000000000000  -6.300930060509153  -1.770255894360821E2  -9.990000000000000E2   0.000000000000000  -9.990000000000000E2   0.000000000000000  
 8.740000000000000E9    -9.990000000000000E2   0.000000000000000  -6.151682171864365   1.487035056269476E2  -9.990000000000000E2   0.000000000000000  -9.990000000000000E2   0.000000000000000  
 8.760000000000000E9    -9.990000000000000E2   0.000000000000000  -5.725108653299355   1.124949102323301E2  -9.990000000000000E2   0.000000000000000  -9.990000000000000E2   0.000000000000000  
 8.780000000000000E9    -9.990000000000000E2   0.000000000000000  -5.467977457020505   7.391421053854022E1  -9.990000000000000E2   0.000000000000000  -9.990000000000000E2   0.000000000000000  
 8.800000000000000E9    -9.990000000000000E2   0.000000000000000  -5.570933377961415   3.564396752123731E1  -9.990000000000000E2   0.000000000000000  -9.990000000000000E2   0.000000000000000  
 8.820000000000000E9    -9.990000000000000E2   0.000000000000000  -5.725738708612263  -4.905401582354664E-1  -9.990000000000000E2   0.000000000000000  -9.990000000000000E2   0.000000000000000  
 8.840000000000000E9    -9.990000000000000E2   0.000000000000000  -5.647429278330142  -3.575721322947564E1  -9.990000000000000E2   0.000000000000000  -9.990000000000000E2   0.000000000000000  
 8.860000000000000E9    -9.990000000000000E2   0.000000000000000  -5.382884557438000  -7.182238482464398E1  -9.990000000000000E2   0.000000000000000  -9.990000000000000E2   0.000000000000000  
 8.880000000000000E9    -9.990000000000000E2   0.000000000000000  -5.167184475942869  -1.089150254169642E2  -9.990000000000000E2   0.000000000000000  -9.990000000000000E2   0.000000000000000  
 8.900000000000000E9    -9.990000000000000E2   0.000000000000000  -4.793315924518043  -1.460317855431768E2  -9.990000000000000E2   0.000000000000000  -9.990000000000000E2   0.000000000000000  
 8.920000000000000E9    -9.990000000000000E2   0.000000000000000  -4.581817426454764   1.750529115530916E2  -9.990000000000000E2   0.000000000000000  -9.990000000000000E2   0.000000000000000  
 8.940000000000000E9    -9.990000000000000E2   0.000000000000000  -4.497308207478956   1.363098108281434E2  -9.990000000000000E2   0.000000000000000  -9.990000000000000E2   0.000000000000000  
 8.960000000000000E9    -9.990000000000000E2   0.000000000000000  -4.472116970011452   9.766452632022848E1  -9.990000000000000E2   0.000000000000000  -9.990000000000000E2   0.000000000000000  
 8.980000000000000E9    -9.990000000000000E2   0.000000000000000  -4.513800229857748   5.901928057504144E1  -9.990000000000000E2   0.000000000000000  -9.990000000000000E2   0.000000000000000  
 9.000000000000000E9    -9.990000000000000E2   0.000000000000000  -4.651280921867503   2.044668424094091E1  -9.990000000000000E2   0.000000000000000  -9.990000000000000E2   0.000000000000000  
 9.020000000000000E9    -9.990000000000000E2   0.000000000000000  -4.890353670280970  -1.763042978756300E1  -9.990000000000000E2   0.000000000000000  -9.990000000000000E2   0.000000000000000  
 9.040000000000000E9    -9.990000000000000E2   0.000000000000000  -5.185580243835042  -5.474960285065913E1  -9.990000000000000E2   0.000000000000000  -9.990000000000000E2   0.000000000000000  
 9.060000000000000E9    -9.990000000000000E2   0.000000000000000  -5.416355826029889  -9.131806182149373E1  -9.990000000000000E2   0.000000000000000  -9.990000000000000E2   0.000000000000000  
 9.080000000000000E9    -9.990000000000000E2   0.000000000000000  -5.287571197139267  -1.269913601947949E2  -9.990000000000000E2   0.000000000000000  -9.990000000000000E2   0.000000000000000  
 9.100000000000000E9    -9.990000000000000E2   0.000000000000000  -5.428897793616136  -1.653925669372547E2  -9.990000000000000E2   0.000000000000000  -9.990000000000000E2   0.000000000000000  
 9.120000000000000E9    -9.990000000000000E2   0.000000000000000  -5.842204880694488   1.579935077685710E2  -9.990000000000000E2   0.000000000000000  -9.990000000000000E2   0.000000000000000  
 9.140000000000000E9    -9.990000000000000E2   0.000000000000000  -6.065509412242143   1.238943857821804E2  -9.990000000000000E2   0.000000000000000  -9.990000000000000E2   0.000000000000000  
 9.160000000000000E9    -9.990000000000000E2   0.000000000000000  -5.853147057615758   8.936475920848450E1  -9.990000000000000E2   0.000000000000000  -9.990000000000000E2   0.000000000000000  
 9.180000000000000E9    -9.990000000000000E2   0.000000000000000  -5.621142020423668   5.191169182563282E1  -9.990000000000000E2   0.000000000000000  -9.990000000000000E2   0.000000000000000  
 9.200000000000000E9    -9.990000000000000E2   0.000000000000000  -5.813371014381879   1.420502192677401E1  -9.990000000000000E2   0.000000000000000  -9.990000000000000E2   0.000000000000000  
 9.220000000000000E9    -9.990000000000000E2   0.000000000000000  -6.018608463131257  -2.066364320822224E1  -9.990000000000000E2   0.000000000000000  -9.990000000000000E2   0.000000000000000  
 9.240000000000000E9    -9.990000000000000E2   0.000000000000000  -5.885213583177705  -5.545945462562298E1  -9.990000000000000E2   0.000000000000000  -9.990000000000000E2   0.000000000000000  
 9.260000000000000E9    -9.990000000000000E2   0.000000000000000  -5.661375332859174  -9.202034704640464E1  -9.990000000000000E2   0.000000000000000  -9.990000000000000E2   0.000000000000000  
 9.280000000000000E9    -9.990000000000000E2   0.000000000000000  -5.662927916919480  -1.292561797663938E2  -9.990000000000000E2   0.000000000000000  -9.990000000000000E2   0.000000000000000  
 9.300000000000000E9    -9.990000000000000E2   0.000000000000000  -5.762143500917048  -1.651433288211201E2  -9.990000000000000E2   0.000000000000000  -9.990000000000000E2   0.000000000000000  
 9.320000000000000E9    -9.990000000000000E2   0.000000000000000  -5.669483153166748   1.596323644522692E2  -9.990000000000000E2   0.000000000000000  -9.990000000000000E2   0.000000000000000  
 9.340000000000000E9    -9.990000000000000E2   0.000000000000000  -5.469723399713381   1.233350149745602E2  -9.990000000000000E2   0.000000000000000  -9.990000000000000E2   0.000000000000000  
 9.360000000000000E9    -9.990000000000000E2   0.000000000000000  -5.391326932126827   8.645497296186353E1  -9.990000000000000E2   0.000000000000000  -9.990000000000000E2   0.000000000000000  
 9.380000000000000E9    -9.990000000000000E2   0.000000000000000  -5.360861442988210   5.017612096900329E1  -9.990000000000000E2   0.000000000000000  -9.990000000000000E2   0.000000000000000  
 9.400000000000000E9    -9.990000000000000E2   0.000000000000000  -5.241957151739375   1.403278429531887E1  -9.990000000000000E2   0.000000000000000  -9.990000000000000E2   0.000000000000000  
 9.420000000000000E9    -9.990000000000000E2   0.000000000000000  -5.108975722265036  -2.276072886419204E1  -9.990000000000000E2   0.000000000000000  -9.990000000000000E2   0.000000000000000  
 9.440000000000000E9    -9.990000000000000E2   0.000000000000000  -5.063209178910344  -5.951422074058771E1  -9.990000000000000E2   0.000000000000000  -9.990000000000000E2   0.000000000000000  
 9.460000000000000E9    -9.990000000000000E2   0.000000000000000  -4.969689727021259  -9.573920912239613E1  -9.990000000000000E2   0.000000000000000  -9.990000000000000E2   0.000000000000000  
 9.480000000000000E9    -9.990000000000000E2   0.000000000000000  -4.764828356134223  -1.324623236267392E2  -9.990000000000000E2   0.000000000000000  -9.990000000000000E2   0.000000000000000  
 9.500000000000000E9    -9.990000000000000E2   0.000000000000000  -4.602622553955372  -1.701922434643547E2  -9.990000000000000E2   0.000000000000000  -9.990000000000000E2   0.000000000000000  
 9.520000000000000E9    -9.990000000000000E2   0.000000000000000  -4.550531521917647   1.518452606972814E2  -9.990000000000000E2   0.000000000000000  -9.990000000000000E2   0.000000000000000  
 9.540000000000000E9    -9.990000000000000E2   0.000000000000000  -4.575810086905283   1.138470772899855E2  -9.990000000000000E2   0.000000000000000  -9.990000000000000E2   0.000000000000000  
 9.560000000000000E9    -9.990000000000000E2   0.000000000000000  -4.703477264425398   7.599904039556873E1  -9.990000000000000E2   0.000000000000000  -9.990000000000000E2   0.000000000000000  
 9.580000000000000E9    -9.990000000000000E2   0.000000000000000  -4.883856150519037   3.876777153173650E1  -9.990000000000000E2   0.000000000000000  -9.990000000000000E2   0.000000000000000  
 9.600000000000000E9    -9.990000000000000E2   0.000000000000000  -5.058828696879469   1.762772320355978  -9.990000000000000E2   0.000000000000000  -9.990000000000000E2   0.000000000000000  
 9.620000000000000E9    -9.990000000000000E2   0.000000000000000  -5.341559262995729  -3.512426386533394E1  -9.990000000000000E2   0.000000000000000  -9.990000000000000E2   0.000000000000000  
 9.640000000000000E9    -9.990000000000000E2   0.000000000000000  -5.707111387046505  -7.038029872613751E1  -9.990000000000000E2   0.000000000000000  -9.990000000000000E2   0.000000000000000  
 9.660000000000000E9    -9.990000000000000E2   0.000000000000000  -5.810180993280426  -1.043354461488536E2  -9.990000000000000E2   0.000000000000000  -9.990000000000000E2   0.000000000000000  
 9.680000000000000E9    -9.990000000000000E2   0.000000000000000  -5.642661662056351  -1.395823397879544E2  -9.990000000000000E2   0.000000000000000  -9.990000000000000E2   0.000000000000000  
 9.700000000000000E9    -9.990000000000000E2   0.000000000000000  -5.663649341622329  -1.765228013756220E2  -9.990000000000000E2   0.000000000000000  -9.990000000000000E2   0.000000000000000  
 9.720000000000000E9    -9.990000000000000E2   0.000000000000000  -5.940111811414294   1.479913361259947E2  -9.990000000000000E2   0.000000000000000  -9.990000000000000E2   0.000000000000000  
 9.740000000000000E9    -9.990000000000000E2   0.000000000000000  -5.999048551254933   1.145093158885395E2  -9.990000000000000E2   0.000000000000000  -9.990000000000000E2   0.000000000000000  
 9.760000000000000E9    -9.990000000000000E2   0.000000000000000  -5.706842757538165   8.013437951610639E1  -9.990000000000000E2   0.000000000000000  -9.990000000000000E2   0.000000000000000  
 9.780000000000000E9    -9.990000000000000E2   0.000000000000000  -5.474687225790161   4.361934705493704E1  -9.990000000000000E2   0.000000000000000  -9.990000000000000E2   0.000000000000000  
 9.800000000000000E9    -9.990000000000000E2   0.000000000000000  -5.472197429460282   7.438010293323695  -9.990000000000000E2   0.000000000000000  -9.990000000000000E2   0.000000000000000  
 9.820000000000000E9    -9.990000000000000E2   0.000000000000000  -5.340832426755164  -2.760479699562621E1  -9.990000000000000E2   0.000000000000000  -9.990000000000000E2   0.000000000000000  
 9.840000000000000E9    -9.990000000000000E2   0.000000000000000  -5.033569300596358  -6.393103652299492E1  -9.990000000000000E2   0.000000000000000  -9.990000000000000E2   0.000000000000000  
 9.860000000000000E9    -9.990000000000000E2   0.000000000000000  -4.920151523183034  -1.019585822298826E2  -9.990000000000000E2   0.000000000000000  -9.990000000000000E2   0.000000000000000  
 9.880000000000000E9    -9.990000000000000E2   0.000000000000000  -5.142260024974803  -1.390729534263310E2  -9.990000000000000E2   0.000000000000000  -9.990000000000000E2   0.000000000000000  
 9.900000000000000E9    -9.990000000000000E2   0.000000000000000  -5.313805835745877  -1.737471582709748E2  -9.990000000000000E2   0.000000000000000  -9.990000000000000E2   0.000000000000000  
 9.920000000000000E9    -9.990000000000000E2   0.000000000000000  -5.120022261797663   1.519037331919326E2  -9.990000000000000E2   0.000000000000000  -9.990000000000000E2   0.000000000000000  
 9.940000000000000E9    -9.990000000000000E2   0.000000000000000  -4.774924002657974   1.153195025796142E2  -9.990000000000000E2   0.000000000000000  -9.990000000000000E2   0.000000000000000  
 9.960000000000000E9    -9.990000000000000E2   0.000000000000000  -4.698269180727964   7.725837395311301E1  -9.990000000000000E2   0.000000000000000  -9.990000000000000E2   0.000000000000000  
 9.980000000000000E9    -9.990000000000000E2   0.000000000000000  -4.847099668003358   4.039525733938072E1  -9.990000000000000E2   0.000000000000000  -9.990000000000000E2   0.000000000000000  
 1.000000000000000E10   -9.990000000000000E2   0.000000000000000  -4.906553315460746   4.797956638387526  -9.990000000000000E2   0.000000000000000  -9.990000000000000E2   0.000000000000000  
 1.002000000000000E10   -9.990000000000000E2   0.000000000000000  -4.803054503772341  -3.093400946101231E1  -9.990000000000000E2   0.000000000000000  -9.990000000000000E2   0.000000000000000  
