#  HZ   S   DB   R     50.00 
! Rohde & Schwarz ZVA67 4Ports - Version 3.60 - 1305.7002k04 SN: 101051
! Date: 2012-04-04 16:21:24
! Measurements: S11 S21 S12 S22 
! 
 8.000000000000000E9    -5.367299997216529  -8.818042651616207E1  -3.308934235969498  -1.763571869421113E2  -3.318829560413000  -1.759752203170722E2  -5.228516615371833  -1.019907769657834E2  
 8.020000000000000E9    -4.704927486320155  -9.808449986196956E1  -3.619813490884004   1.724042331960761E2  -3.628420881575475   1.727824978992036E2  -4.604003031822399  -1.109657488817410E2  
 8.040000000000000E9    -4.223720403941624  -1.077887808071384E2  -3.889175391245671   1.616434956049620E2  -3.898085697427838   1.620214540064162E2  -4.153585331932789  -1.199053985989229E2  
 8.060000000000000E9    -3.878218752706281  -1.172854011086974E2  -4.109185591982032   1.512422774770117E2  -4.119141680922656   1.516234884521956E2  -3.835300490692177  -1.287530776891729E2  
 8.080000000000000E9    -3.637347357409486  -1.265600846867932E2  -4.278300450355471   1.411297498899879E2  -4.288166407319291   1.415164875465821E2  -3.621402626001042  -1.374999132675435E2  
 8.100000000000000E9    -3.483961118078643  -1.356574827711412E2  -4.388353311693448   1.312353365328572E2  -4.399758323897951   1.316262841233245E2  -3.487480067311612  -1.461615607298670E2  
 8.120000000000000E9    -3.406887284450043  -1.446244238783460E2  -4.440879579427306   1.214571375235665E2  -4.451222076117809   1.218578413078327E2  -3.425288881880269  -1.547833308253354E2  
 8.140000000000000E9    -3.390814810722321  -1.535187574710832E2  -4.434697143198241   1.117378400565277E2  -4.443965965495240   1.121403283334609E2  -3.427598888738741  -1.634057531297474E2  
 8.160000000000000E9    -3.444997040055599  -1.624513562177452E2  -4.367678275529253   1.020069330129194E2  -4.377499138180694   1.024123781666828E2  -3.499278575367847  -1.720906426742257E2  
 8.180000000000000E9    -3.572821548707228  -1.714063244650102E2  -4.245701445566852   9.217063538358424E1  -4.254708925109300   9.258231649865365E1  -3.642038607803545   1.791318524126637E2  
 8.200000000000000E9    -3.784730233553721   1.795645937501369E2  -4.073253392131119   8.217477438912354E1  -4.083196284511356   8.257851305639613E1  -3.859775826940922   1.702620695325872E2  
 8.220000000000000E9    -4.082481439199495   1.704709850409475E2  -3.855809470211812   7.197192484572757E1  -3.866459128795548   7.237699735793382E1  -4.165083905915928   1.612363962012863E2  
 8.240000000000000E9    -4.487309554614627   1.612549494068447E2  -3.597783630128678   6.148132102797082E1  -3.608664157827333   6.189999073637826E1  -4.582253746532881   1.520357127798494E2  
 8.260000000000000E9    -5.040967724511468   1.519404039903400E2  -3.311922312943310   5.064644468945015E1  -3.321317625281717   5.106406551013047E1  -5.138346382482876   1.427032352350679E2  
 8.280000000000000E9    -5.779643089632308   1.426160914947224E2  -3.007272331953685   3.942139304414626E1  -3.015793805289772   3.983611222098835E1  -5.871523231047122   1.332827710602647E2  
 8.300000000000000E9    -6.763130701253584   1.334177143243041E2  -2.699231735482157   2.776875921109392E1  -2.708382621453561   2.817803251751310E1  -6.844724974674212   1.239036553304635E2  
 8.320000000000000E9    -8.073549906670818   1.247290319916277E2  -2.406478141331553   1.566211105839409E1  -2.416621264216056   1.605903863008154E1  -8.147572932735084   1.148722398120703E2  
 8.340000000000000E9    -9.828670061103338   1.174233685291451E2  -2.152379906302015   3.126677099646118  -2.164280730783534   3.526362706039342  -9.902388541945790   1.069161470173449E2  
 8.360000000000000E9    -1.213549225392891E1   1.132188522605807E2  -1.952429961045452  -9.655789407128953  -1.964014794908684  -9.249827547667577  -1.226485108559480E1   1.014814971208103E2  
 8.380000000000000E9    -1.514748338345658E1   1.158335681681901E2  -1.796552569065999  -2.270935500766569E1  -1.807393768754120  -2.230244873219173E1  -1.554556072519253E1   1.025353986444064E2  
 8.400000000000000E9    -1.798664020868832E1   1.352871987325088E2  -1.719751191236561  -3.598671749000039E1  -1.730432761131700  -3.557854433429795E1  -1.905953660102050E1   1.226443878279506E2  
 8.420000000000000E9    -1.714594871322550E1   1.643735634979640E2  -1.728564396258920  -4.925103306015269E1  -1.739121449878484  -4.884153051126211E1  -1.824565097762178E1   1.575060394331807E2  
 8.440000000000000E9    -1.406920992636936E1   1.758604195465954E2  -1.818105293912105  -6.234984334067772E1  -1.822332167334922  -6.189676351685838E1  -1.466769890430601E1   1.702031351678797E2  
 8.460000000000000E9    -1.144510205965330E1   1.749739963144583E2  -1.969168547972250  -7.512781377345419E1  -1.973336009602027  -7.467227333315078E1  -1.179165038915040E1   1.688012416303941E2  
 8.480000000000000E9    -9.503297438926623   1.692224006178690E2  -2.165870085877198  -8.752644769457916E1  -2.169988401048361  -8.705386108050162E1  -9.731027602621792   1.623727277744454E2  
 8.500000000000000E9    -8.075628471655399   1.614970789526792E2  -2.391522792423054  -9.948286710911472E1  -2.396217179107685  -9.900150176459806E1  -8.247410198169598   1.540655195421545E2  
 8.520000000000000E9    -7.005770783174575   1.530097925430543E2  -2.632374819384852  -1.109889845318310E2  -2.636745921124329  -1.105024548657907E2  -7.161786697809141   1.450760577517745E2  
 8.540000000000000E9    -6.201217606761089   1.441380221841569E2  -2.862215844618998  -1.220192146311321E2  -2.866387911313638  -1.215368278068874E2  -6.328421466578578   1.359236252410466E2  
 8.560000000000000E9    -5.608900423322094   1.351965101568971E2  -3.063185566932931  -1.327372037332997E2  -3.068391810007004  -1.322513557773115E2  -5.693904889615612   1.265374839286229E2  
 8.580000000000000E9    -5.168159175859178   1.263155054594252E2  -3.244199214938935  -1.431835525646748E2  -3.248202148118488  -1.426993768915883E2  -5.230956747111255   1.171611030048970E2  
 8.600000000000000E9    -4.843361317211244   1.174968287052337E2  -3.392864340897905  -1.533774049609150E2  -3.398232590371059  -1.529000016505770E2  -4.897213781791155   1.078795323504488E2  
 8.620000000000000E9    -4.612392299773416   1.087649256175235E2  -3.506765136355372  -1.633889372944041E2  -3.512666448816254  -1.629077604335594E2  -4.666123256758080   9.866623835402967E1  
 8.640000000000000E9    -4.461773085185134   1.001027334614045E2  -3.582777453767066  -1.732562623757091E2  -3.588355886699954  -1.727762410038576E2  -4.521739425123822   8.951075512896588E1  
 8.660000000000000E9    -4.383655427444310   9.150550585768399E1  -3.618680048323023   1.769725966726117E2  -3.623642213727504   1.774422026138911E2  -4.453251083749934   8.038790873292859E1  
 8.680000000000000E9    -4.373303521443937   8.292728432416301E1  -3.612026646336005   1.672319272477854E2  -3.617072037850045   1.676949814095840E2  -4.454680918051384   7.128548977593184E1  
 8.700000000000000E9    -4.438013753634329   7.435002788571003E1  -3.567595537691656   1.574755769912722E2  -3.572514695177525   1.579192874484149E2  -4.527492945050576   6.218853931742154E1  
 8.720000000000000E9    -4.581660968405561   6.574711734439391E1  -3.487743368810043   1.476556473138569E2  -3.493857731200207   1.480912327306640E2  -4.670361946733721   5.305204240605125E1  
 8.740000000000000E9    -4.802658621662816   5.716902720928464E1  -3.373658352415361   1.377511502532011E2  -3.378417930264000   1.381862717821803E2  -4.891728689989784   4.383352679011156E1  
 8.760000000000000E9    -5.094996896799029   4.857494726597688E1  -3.220923542482574   1.277027389541747E2  -3.226563908686340   1.281211589357812E2  -5.206968264345897   3.455867252037483E1  
 8.780000000000000E9    -5.486740931988704   3.985814819054783E1  -3.044519021726953   1.174334266043637E2  -3.049434235565392   1.178464115563266E2  -5.628788074735174   2.520630052647691E1  
 8.800000000000000E9    -6.012003132970198   3.112144824519770E1  -2.848035980924462   1.069448574597182E2  -2.854837588942042   1.073578205591447E2  -6.172899061090528   1.576998275310924E1  
 8.820000000000000E9    -6.699694455256922   2.246889627724148E1  -2.639378817460730   9.619202213524096E1  -2.646676767895827   9.661026599165366E1  -6.876347735465910   6.301067105567205  
 8.840000000000000E9    -7.581337714071362   1.403831731556330E1  -2.427286563104122   8.515831335272802E1  -2.433352683327258   8.558325101093979E1  -7.789404114843834  -3.130735542945584  
 8.860000000000000E9    -8.721210108088291   5.989672384492661  -2.224194690135319   7.382356222875774E1  -2.230298316380499   7.423556635044504E1  -8.968659228891589  -1.232653888835099E1  
 8.880000000000000E9    -1.023822072313518E1  -1.173617699079385  -2.050032020547058   6.225406385576199E1  -2.056376550118351   6.266137391265874E1  -1.052634640749892E1  -2.111016153266336E1  
 8.900000000000000E9    -1.215460483826304E1  -5.570999002314629  -1.874644379715625   5.051633710124950E1  -1.881847770103222   5.093707695148245E1  -1.269620337939516E1  -2.802892475373259E1  
 8.920000000000000E9    -1.455573896903642E1  -6.065666693844818  -1.747163316044698   3.840900033441938E1  -1.753352775178369   3.882580733136859E1  -1.559257812407484E1  -3.094742945831648E1  
 8.940000000000000E9    -1.725854630463475E1   3.092852751636523  -1.673136724149975   2.619133133589769E1  -1.679991206886556   2.660737036920926E1  -1.948290668197110E1  -2.267088745344544E1  
 8.960000000000000E9    -1.852140372267753E1   2.598227256436112E1  -1.651998062799261   1.392070755520098E1  -1.659319209741356   1.434970080694045E1  -2.194575099268122E1   1.198261471832920E1  
 8.980000000000000E9    -1.675664254856608E1   4.630605367375674E1  -1.686266974943923   1.712019719905789  -1.693323040822433   2.132601188613786  -1.877048208677991E1   4.142210184209826E1  
 9.000000000000000E9    -1.411422169649442E1   5.268573145587612E1  -1.770344522456228  -1.034299045012722E1  -1.777046736000345  -9.927284131060336  -1.512702883234843E1   4.657580705546789E1  
 9.020000000000000E9    -1.189275889866613E1   5.090171372649360E1  -1.896159584228883  -2.220179490545974E1  -1.903997183717692  -2.177824438990110E1  -1.248629389586369E1   4.259047089046050E1  
 9.040000000000000E9    -1.015306606797971E1   4.532187935861731E1  -2.056832860872107  -3.368571420931477E1  -2.063306473517757  -3.325911031526362E1  -1.057966315610867E1   3.585369422338626E1  
 9.060000000000000E9    -8.855717229125483   3.803805815982715E1  -2.216840370823289  -4.496836296161027E1  -2.223497964102907  -4.452821329381989E1  -9.103979967343138   2.734935807170092E1  
 9.080000000000000E9    -7.850162100492352   3.007397545439417E1  -2.393010512447574  -5.595252257021333E1  -2.400149148762112  -5.551606375863298E1  -8.020688991741958   1.827532827533542E1  
 9.100000000000000E9    -7.069952970214668   2.166760758183061E1  -2.569514563072544  -6.664644279645687E1  -2.576478812505883  -6.620990532377559E1  -7.190592690616386   9.110117170785593  
 9.120000000000000E9    -6.469230385205115   1.307250597530920E1  -2.734892125053571  -7.707518128306033E1  -2.742944447396449  -7.663046566742165E1  -6.553470397195761  -6.517549578657027E-2  
 9.140000000000000E9    -6.009671677000511   4.415215754249083  -2.882870035516574  -8.726636427628451E1  -2.890621081992829  -8.682149733611897E1  -6.072913371105629  -9.177666622491310  
 9.160000000000000E9    -5.667988421892373  -4.273746824358296  -3.009207217547179  -9.726262787000434E1  -3.016772746527445  -9.680105656651318E1  -5.716728749981840  -1.819302699598538E1  
 9.180000000000000E9    -5.421762409763562  -1.298023864065742E1  -3.107022723974807  -1.070982324505013E2  -3.113412428620125  -1.066441891993388E2  -5.459974798622951  -2.711382503280184E1  
 9.200000000000000E9    -5.272831394463498  -2.170687679850620E1  -3.178577060353953  -1.168442692876486E2  -3.185195298016595  -1.164074002138069E2  -5.290722039619318  -3.595222041673272E1  
 9.220000000000000E9    -5.176481986814576  -3.015135840349868E1  -3.213624112369363  -1.264128953152890E2  -3.222635711747798  -1.259694565940763E2  -5.197342298852293  -4.479106052926370E1  
 9.240000000000000E9    -5.165187964094585  -3.886326285264219E1  -3.217554216833766  -1.360608082708316E2  -3.227256232984024  -1.355985278508561E2  -5.177768729346337  -5.351648292602302E1  
 9.260000000000000E9    -5.239026352264698  -4.746742345703513E1  -3.199566068694367  -1.456779505329990E2  -3.208087865847106  -1.452244630481438E2  -5.227164296090833  -6.222241801699479E1  
 9.280000000000000E9    -5.372448865875351  -5.587741972422866E1  -3.150904922790840  -1.552445135239710E2  -3.157671919053560  -1.547881503744522E2  -5.343980289851973  -7.099120220798568E1  
 9.300000000000000E9    -5.546833792896228  -6.448086806827105E1  -3.053716992400637  -1.648965889837309E2  -3.061525726811162  -1.644427424370860E2  -5.554242432321823  -7.978893378112821E1  
 9.320000000000000E9    -5.821075402453495  -7.327784601449164E1  -2.931715827317309  -1.747374806530162E2  -2.939661377170794  -1.742787985124766E2  -5.857125105751155  -8.855407070676003E1  
 9.340000000000000E9    -6.207916295675687  -8.207083071408076E1  -2.791101840273055   1.752512357631070E2  -2.799034925000624   1.757229868513246E2  -6.262020035802991  -9.732130921141054E1  
 9.360000000000000E9    -6.722338249280965  -9.082590478254603E1  -2.635358824331318   1.650566970081935E2  -2.642165946677569   1.655342679729326E2  -6.786808865500344  -1.061064062795361E2  
 9.380000000000000E9    -7.390797638986488  -9.947941554570515E1  -2.467910926290284   1.546666967233109E2  -2.474848025573539   1.551429591974471E2  -7.464392242876946  -1.148510417500150E2  
 9.400000000000000E9    -8.253690692536370  -1.079342678951950E2  -2.295601875894168   1.440468607772574E2  -2.303184816088625   1.445282302397309E2  -8.336088042194266  -1.234120859359401E2  
 9.420000000000000E9    -9.359892030418591  -1.159733726331970E2  -2.127357529418359   1.331788689737020E2  -2.134896072482278   1.336716652663888E2  -9.455619515850255  -1.315727185506271E2  
 9.440000000000000E9    -1.078943354473477E1  -1.231930885513817E2  -1.972916879262403   1.220687442063133E2  -1.978769997611295   1.225671527055018E2  -1.090291980548963E1  -1.389239987854344E2  
 9.460000000000000E9    -1.264589252578941E1  -1.286545248063640E2  -1.839857517085188   1.107575970401569E2  -1.846569759063875   1.112436160125446E2  -1.280502898690452E1  -1.445429308616143E2  
 9.480000000000000E9    -1.505999181104416E1  -1.302677736571695E2  -1.737927167910009   9.925656563607683E1  -1.745663594520175   9.973391906689035E1  -1.531738015671733E1  -1.463174176031794E2  
 9.500000000000000E9    -1.794922179105458E1  -1.230264200190508E2  -1.673804548472480   8.762725531412278E1  -1.681181015995001   8.810480701583190E1  -1.841868464966917E1  -1.388494622224746E2  
 9.520000000000000E9    -1.986849553137287E1  -1.001012192750518E2  -1.653905901903803   7.594224530584354E1  -1.660801168226335   7.641134694569759E1  -2.052827591917087E1  -1.136764017804741E2  
 9.540000000000000E9    -1.836560539230725E1  -7.535811394053404E1  -1.679057206112410   6.425554101509839E1  -1.685870125374646   6.472595882305662E1  -1.874533425850051E1  -8.687966435939569E1  
 9.560000000000000E9    -1.550916047727628E1  -6.617793699386473E1  -1.749665388035413   5.266941076508006E1  -1.756998127339271   5.313131811190135E1  -1.563657889386561E1  -7.789533290677872E1  
 9.580000000000000E9    -1.305533716173172E1  -6.659878460158907E1  -1.861255523634487   4.127965477855467E1  -1.868168830753216   4.173655918658101E1  -1.305096540070482E1  -7.895229626668915E1  
 9.600000000000000E9    -1.111240576632472E1  -7.131487857507916E1  -1.992444312687588   3.015254767820199E1  -2.000019023739603   3.058350656914511E1  -1.109058425405987E1  -8.438952113628741E1  
 9.620000000000000E9    -9.615170816921937  -7.828949695075738E1  -2.138897548875682   1.920529753008532E1  -2.146869447702168   1.962595366726234E1  -9.621988988080799  -9.157388750248528E1  
 9.640000000000000E9    -8.469730944854542  -8.621750693293134E1  -2.300259706889913   8.487341300634606  -2.308605471330334   8.901246908288554  -8.489565004104717  -9.949400248353494E1  
 9.660000000000000E9    -7.582504190146764  -9.454027410419674E1  -2.466720305171743  -1.973341114126920  -2.474004820168280  -1.545999452153736  -7.608952915157899  -1.077560003374401E2  
 9.680000000000000E9    -6.892356764780121  -1.030290537505117E2  -2.627470120569606  -1.217587680918426E1  -2.635153899659940  -1.176231234110257E1  -6.923423429597565  -1.161874479352019E2  
 9.700000000000000E9    -6.355712163967613  -1.115750318691118E2  -2.775097275423369  -2.216431036324516E1  -2.782238716751376  -2.174315523547198E1  -6.393616570868407  -1.246458314258305E2  
 9.720000000000000E9    -5.947706620884977  -1.201331087008871E2  -2.903789521248085  -3.196131556822929E1  -2.912432147315455  -3.153724103444363E1  -5.988576020072259  -1.330895529227308E2  
 9.740000000000000E9    -5.646524503713501  -1.286847901153264E2  -3.013816199291347  -4.159938095339592E1  -3.021651237381919  -4.116933517588267E1  -5.687683835179177  -1.415019905148246E2  
 9.760000000000000E9    -5.433947344961490  -1.371763396358338E2  -3.095889294290779  -5.109600085194177E1  -3.104824183369011  -5.065458937425373E1  -5.476538179903850  -1.498629168653653E2  
 9.780000000000000E9    -5.299700023738106  -1.456308953036911E2  -3.150253247177538  -6.050855306845523E1  -3.159294581023635  -6.005435857742912E1  -5.344366199183212  -1.581872927636258E2  
 9.800000000000000E9    -5.238361533590320  -1.540440393132056E2  -3.175181647249733  -6.986254654525260E1  -3.182924879967648  -6.942953127903382E1  -5.283727079166815  -1.664613096760322E2  
 9.820000000000000E9    -5.254088189318187  -1.624654977827986E2  -3.170628497350889  -7.921042475695586E1  -3.178448385918146  -7.872781907144483E1  -5.298031711500525  -1.747600221821436E2  
 9.840000000000000E9    -5.344582010778867  -1.708368409397011E2  -3.134622623190143  -8.856663308997561E1  -3.143394243029530  -8.807704250067302E1  -5.386815883488549   1.769666702168991E2  
 9.860000000000000E9    -5.511764381475204  -1.792212274289809E2  -3.070311207084571  -9.797157376130554E1  -3.078051391602070  -9.747613515276422E1  -5.555548889884371   1.686722020488637E2  
 9.880000000000000E9    -5.765182387805894   1.723658825843490E2  -2.981337477786504  -1.074730019586205E2  -2.987790748423354  -1.069690511566797E2  -5.812536970916096   1.603093853006787E2  
 9.900000000000000E9    -6.121807130797202   1.639685693254340E2  -2.868094155400807  -1.170730728950215E2  -2.875355445255626  -1.165760754638553E2  -6.175909661761852   1.519061414324632E2  
 9.920000000000000E9    -6.602143456100046   1.557081421927347E2  -2.730124028675731  -1.267920931002186E2  -2.737296361964386  -1.262984933984378E2  -6.665708747775470   1.435522687668901E2  
 9.940000000000000E9    -7.209450600566741   1.476009778455496E2  -2.566614696157835  -1.367371122849847E2  -2.573511803628418  -1.362584802958465E2  -7.283014865572498   1.352745749117272E2  
 9.960000000000000E9    -7.989230188265936   1.396450192120267E2  -2.397569296725590  -1.469573873090556E2  -2.403239597860379  -1.464857631221647E2  -8.078132562438549   1.270302966830240E2  
 9.980000000000000E9    -9.002868419268257   1.320899924494642E2  -2.229008726588282  -1.574243956795237E2  -2.236135261959768  -1.569636760049121E2  -9.116010099937979   1.190367489392721E2  
 1.000000000000000E10   -1.031137472029487E1   1.253801950220071E2  -2.071398866730319  -1.681347284124324E2  -2.078682660163675  -1.676872014205275E2  -1.047182680258828E1   1.116683667895317E2  
 1.002000000000000E10   -1.199997761439357E1   1.203385389711195E2  -1.932987243503586  -1.790841769511342E2  -1.940068210710049  -1.786436710874527E2  -1.226050505141076E1   1.056680827771718E2  
