#  HZ   S   DB   R     50.00 
! Rohde & Schwarz ZVA67 4Ports - Version 3.60 - 1305.7002k04 SN: 101051
! Date: 2012-04-04 15:48:35
! Measurements: S11 S21 S12 S22 
! 
 8.000000000000000E9    -9.990000000000000E2   0.000000000000000  -5.338539066516954   1.666318673750600E2  -9.990000000000000E2   0.000000000000000  -9.990000000000000E2   0.000000000000000  
 8.020000000000000E9    -9.990000000000000E2   0.000000000000000  -4.953373232492552   1.221523368576493E2  -9.990000000000000E2   0.000000000000000  -9.990000000000000E2   0.000000000000000  
 8.040000000000000E9    -9.990000000000000E2   0.000000000000000  -4.890718329521335   7.757611850255977E1  -9.990000000000000E2   0.000000000000000  -9.990000000000000E2   0.000000000000000  
 8.060000000000000E9    -9.990000000000000E2   0.000000000000000  -5.077522349440683   3.305530154336547E1  -9.990000000000000E2   0.000000000000000  -9.990000000000000E2   0.000000000000000  
 8.080000000000000E9    -9.990000000000000E2   0.000000000000000  -5.584417209668644  -9.682604646253187  -9.990000000000000E2   0.000000000000000  -9.990000000000000E2   0.000000000000000  
 8.100000000000000E9    -9.990000000000000E2   0.000000000000000  -5.935385595034899  -5.001332739304896E1  -9.990000000000000E2   0.000000000000000  -9.990000000000000E2   0.000000000000000  
 8.120000000000000E9    -9.990000000000000E2   0.000000000000000  -6.101393618505168  -9.136670344403629E1  -9.990000000000000E2   0.000000000000000  -9.990000000000000E2   0.000000000000000  
 8.140000000000000E9    -9.990000000000000E2   0.000000000000000  -6.615076157526755  -1.328514082976121E2  -9.990000000000000E2   0.000000000000000  -9.990000000000000E2   0.000000000000000  
 8.160000000000000E9    -9.990000000000000E2   0.000000000000000  -7.187533274889079  -1.707607164056071E2  -9.990000000000000E2   0.000000000000000  -9.990000000000000E2   0.000000000000000  
 8.180000000000000E9    -9.990000000000000E2   0.000000000000000  -7.266734117517239   1.525434632691803E2  -9.990000000000000E2   0.000000000000000  -9.990000000000000E2   0.000000000000000  
 8.200000000000000E9    -9.990000000000000E2   0.000000000000000  -7.125162412434886   1.135754684543741E2  -9.990000000000000E2   0.000000000000000  -9.990000000000000E2   0.000000000000000  
 8.220000000000000E9    -9.990000000000000E2   0.000000000000000  -7.281647796496687   7.421879206790779E1  -9.990000000000000E2   0.000000000000000  -9.990000000000000E2   0.000000000000000  
 8.240000000000000E9    -9.990000000000000E2   0.000000000000000  -7.360642571943906   3.741210663653600E1  -9.990000000000000E2   0.000000000000000  -9.990000000000000E2   0.000000000000000  
 8.260000000000000E9    -9.990000000000000E2   0.000000000000000  -6.949511585666451   4.430973058853580E-1  -9.990000000000000E2   0.000000000000000  -9.990000000000000E2   0.000000000000000  
 8.280000000000000E9    -9.990000000000000E2   0.000000000000000  -6.439486570207285  -3.971082108088418E1  -9.990000000000000E2   0.000000000000000  -9.990000000000000E2   0.000000000000000  
 8.300000000000000E9    -9.990000000000000E2   0.000000000000000  -6.314915695544162  -8.061066457336230E1  -9.990000000000000E2   0.000000000000000  -9.990000000000000E2   0.000000000000000  
 8.320000000000000E9    -9.990000000000000E2   0.000000000000000  -6.239437093671850  -1.195744482089986E2  -9.990000000000000E2   0.000000000000000  -9.990000000000000E2   0.000000000000000  
 8.340000000000000E9    -9.990000000000000E2   0.000000000000000  -5.853046940740780  -1.583662761452102E2  -9.990000000000000E2   0.000000000000000  -9.990000000000000E2   0.000000000000000  
 8.360000000000000E9    -9.990000000000000E2   0.000000000000000  -5.356548780344432   1.609921186119140E2  -9.990000000000000E2   0.000000000000000  -9.990000000000000E2   0.000000000000000  
 8.380000000000000E9    -9.990000000000000E2   0.000000000000000  -5.022393356032826   1.190123544491310E2  -9.990000000000000E2   0.000000000000000  -9.990000000000000E2   0.000000000000000  
 8.400000000000000E9    -9.990000000000000E2   0.000000000000000  -4.829118027004174   7.686689962453224E1  -9.990000000000000E2   0.000000000000000  -9.990000000000000E2   0.000000000000000  
 8.420000000000000E9    -9.990000000000000E2   0.000000000000000  -4.734302459628246   3.464961407010564E1  -9.990000000000000E2   0.000000000000000  -9.990000000000000E2   0.000000000000000  
 8.440000000000000E9    -9.990000000000000E2   0.000000000000000  -4.736477168615470  -7.538492481408929  -9.990000000000000E2   0.000000000000000  -9.990000000000000E2   0.000000000000000  
 8.460000000000000E9    -9.990000000000000E2   0.000000000000000  -4.853976912118582  -4.947982317122085E1  -9.990000000000000E2   0.000000000000000  -9.990000000000000E2   0.000000000000000  
 8.480000000000000E9    -9.990000000000000E2   0.000000000000000  -5.151219910147581  -9.085485546002109E1  -9.990000000000000E2   0.000000000000000  -9.990000000000000E2   0.000000000000000  
 8.500000000000000E9    -9.990000000000000E2   0.000000000000000  -5.437773398191647  -1.305301542040628E2  -9.990000000000000E2   0.000000000000000  -9.990000000000000E2   0.000000000000000  
 8.520000000000000E9    -9.990000000000000E2   0.000000000000000  -5.498279224823530  -1.698222573240665E2  -9.990000000000000E2   0.000000000000000  -9.990000000000000E2   0.000000000000000  
 8.540000000000000E9    -9.990000000000000E2   0.000000000000000  -5.519024725709915   1.494492601537613E2  -9.990000000000000E2   0.000000000000000  -9.990000000000000E2   0.000000000000000  
 8.560000000000000E9    -9.990000000000000E2   0.000000000000000  -5.794520075307912   1.086404757012820E2  -9.990000000000000E2   0.000000000000000  -9.990000000000000E2   0.000000000000000  
 8.580000000000000E9    -9.990000000000000E2   0.000000000000000  -6.164332386591964   6.964890927044417E1  -9.990000000000000E2   0.000000000000000  -9.990000000000000E2   0.000000000000000  
 8.600000000000000E9    -9.990000000000000E2   0.000000000000000  -6.353120382528621   3.192843149551919E1  -9.990000000000000E2   0.000000000000000  -9.990000000000000E2   0.000000000000000  
 8.620000000000000E9    -9.990000000000000E2   0.000000000000000  -6.359907455638902  -5.847495396553856  -9.990000000000000E2   0.000000000000000  -9.990000000000000E2   0.000000000000000  
 8.640000000000000E9    -9.990000000000000E2   0.000000000000000  -6.253692108018686  -4.407575619160671E1  -9.990000000000000E2   0.000000000000000  -9.990000000000000E2   0.000000000000000  
 8.660000000000000E9    -9.990000000000000E2   0.000000000000000  -6.085913070673869  -8.313666506363201E1  -9.990000000000000E2   0.000000000000000  -9.990000000000000E2   0.000000000000000  
 8.680000000000000E9    -9.990000000000000E2   0.000000000000000  -6.047878495667426  -1.230742129007450E2  -9.990000000000000E2   0.000000000000000  -9.990000000000000E2   0.000000000000000  
 8.700000000000000E9    -9.990000000000000E2   0.000000000000000  -6.199748099428486  -1.620684151637822E2  -9.990000000000000E2   0.000000000000000  -9.990000000000000E2   0.000000000000000  
 8.720000000000000E9    -9.990000000000000E2   0.000000000000000  -6.214499366719562   1.607504787325770E2  -9.990000000000000E2   0.000000000000000  -9.990000000000000E2   0.000000000000000  
 8.740000000000000E9    -9.990000000000000E2   0.000000000000000  -5.875782126668153   1.233217027006242E2  -9.990000000000000E2   0.000000000000000  -9.990000000000000E2   0.000000000000000  
 8.760000000000000E9    -9.990000000000000E2   0.000000000000000  -5.398358727144464   8.355973852322872E1  -9.990000000000000E2   0.000000000000000  -9.990000000000000E2   0.000000000000000  
 8.780000000000000E9    -9.990000000000000E2   0.000000000000000  -5.170576786290925   4.211182845565857E1  -9.990000000000000E2   0.000000000000000  -9.990000000000000E2   0.000000000000000  
 8.800000000000000E9    -9.990000000000000E2   0.000000000000000  -5.182493214776029   1.407789139708930  -9.990000000000000E2   0.000000000000000  -9.990000000000000E2   0.000000000000000  
 8.820000000000000E9    -9.990000000000000E2   0.000000000000000  -5.150917543474130  -3.833672585227620E1  -9.990000000000000E2   0.000000000000000  -9.990000000000000E2   0.000000000000000  
 8.840000000000000E9    -9.990000000000000E2   0.000000000000000  -5.040121688905032  -7.852715550289292E1  -9.990000000000000E2   0.000000000000000  -9.990000000000000E2   0.000000000000000  
 8.860000000000000E9    -9.990000000000000E2   0.000000000000000  -5.006360618527827  -1.195436721476081E2  -9.990000000000000E2   0.000000000000000  -9.990000000000000E2   0.000000000000000  
 8.880000000000000E9    -9.990000000000000E2   0.000000000000000  -5.208559557856824  -1.607839846994620E2  -9.990000000000000E2   0.000000000000000  -9.990000000000000E2   0.000000000000000  
 8.900000000000000E9    -9.990000000000000E2   0.000000000000000  -5.339148601615887   1.602332032994850E2  -9.990000000000000E2   0.000000000000000  -9.990000000000000E2   0.000000000000000  
 8.920000000000000E9    -9.990000000000000E2   0.000000000000000  -5.458035505718643   1.198673330270412E2  -9.990000000000000E2   0.000000000000000  -9.990000000000000E2   0.000000000000000  
 8.940000000000000E9    -9.990000000000000E2   0.000000000000000  -5.668369043460812   7.980624392003448E1  -9.990000000000000E2   0.000000000000000  -9.990000000000000E2   0.000000000000000  
 8.960000000000000E9    -9.990000000000000E2   0.000000000000000  -5.968031576914839   4.022550831234550E1  -9.990000000000000E2   0.000000000000000  -9.990000000000000E2   0.000000000000000  
 8.980000000000000E9    -9.990000000000000E2   0.000000000000000  -6.315331016197296   1.660712218090467  -9.990000000000000E2   0.000000000000000  -9.990000000000000E2   0.000000000000000  
 9.000000000000000E9    -9.990000000000000E2   0.000000000000000  -6.616209194124354  -3.590676848701846E1  -9.990000000000000E2   0.000000000000000  -9.990000000000000E2   0.000000000000000  
 9.020000000000000E9    -9.990000000000000E2   0.000000000000000  -6.808756402706496  -7.260089658077690E1  -9.990000000000000E2   0.000000000000000  -9.990000000000000E2   0.000000000000000  
 9.040000000000000E9    -9.990000000000000E2   0.000000000000000  -6.801747858484350  -1.088717535797201E2  -9.990000000000000E2   0.000000000000000  -9.990000000000000E2   0.000000000000000  
 9.060000000000000E9    -9.990000000000000E2   0.000000000000000  -6.640021482386874  -1.463477282105347E2  -9.990000000000000E2   0.000000000000000  -9.990000000000000E2   0.000000000000000  
 9.080000000000000E9    -9.990000000000000E2   0.000000000000000  -6.264684664808726   1.755533297020487E2  -9.990000000000000E2   0.000000000000000  -9.990000000000000E2   0.000000000000000  
 9.100000000000000E9    -9.990000000000000E2   0.000000000000000  -6.324395073128639   1.363495869361432E2  -9.990000000000000E2   0.000000000000000  -9.990000000000000E2   0.000000000000000  
 9.120000000000000E9    -9.990000000000000E2   0.000000000000000  -6.320813129568684   9.951501977706455E1  -9.990000000000000E2   0.000000000000000  -9.990000000000000E2   0.000000000000000  
 9.140000000000000E9    -9.990000000000000E2   0.000000000000000  -5.917914401041421   6.258725245661844E1  -9.990000000000000E2   0.000000000000000  -9.990000000000000E2   0.000000000000000  
 9.160000000000000E9    -9.990000000000000E2   0.000000000000000  -5.421890771661674   2.288435027802682E1  -9.990000000000000E2   0.000000000000000  -9.990000000000000E2   0.000000000000000  
 9.180000000000000E9    -9.990000000000000E2   0.000000000000000  -5.264143090665350  -1.796410008017958E1  -9.990000000000000E2   0.000000000000000  -9.990000000000000E2   0.000000000000000  
 9.200000000000000E9    -9.990000000000000E2   0.000000000000000  -5.249516821777833  -5.751140269454627E1  -9.990000000000000E2   0.000000000000000  -9.990000000000000E2   0.000000000000000  
 9.220000000000000E9    -9.990000000000000E2   0.000000000000000  -5.078959036926119  -9.648896768208886E1  -9.990000000000000E2   0.000000000000000  -9.990000000000000E2   0.000000000000000  
 9.240000000000000E9    -9.990000000000000E2   0.000000000000000  -4.898061288375946  -1.366280715965088E2  -9.990000000000000E2   0.000000000000000  -9.990000000000000E2   0.000000000000000  
 9.260000000000000E9    -9.990000000000000E2   0.000000000000000  -4.831576130405464  -1.771609820155348E2  -9.990000000000000E2   0.000000000000000  -9.990000000000000E2   0.000000000000000  
 9.280000000000000E9    -9.990000000000000E2   0.000000000000000  -4.863204062929528   1.424299398014568E2  -9.990000000000000E2   0.000000000000000  -9.990000000000000E2   0.000000000000000  
 9.300000000000000E9    -9.990000000000000E2   0.000000000000000  -4.970586353836278   1.023263715700901E2  -9.990000000000000E2   0.000000000000000  -9.990000000000000E2   0.000000000000000  
 9.320000000000000E9    -9.990000000000000E2   0.000000000000000  -5.110006149261396   6.276163402128184E1  -9.990000000000000E2   0.000000000000000  -9.990000000000000E2   0.000000000000000  
 9.340000000000000E9    -9.990000000000000E2   0.000000000000000  -5.208479149146845   2.343949857563626E1  -9.990000000000000E2   0.000000000000000  -9.990000000000000E2   0.000000000000000  
 9.360000000000000E9    -9.990000000000000E2   0.000000000000000  -5.327549026010648  -1.621924652764972E1  -9.990000000000000E2   0.000000000000000  -9.990000000000000E2   0.000000000000000  
 9.380000000000000E9    -9.990000000000000E2   0.000000000000000  -5.550647221685716  -5.565523928789243E1  -9.990000000000000E2   0.000000000000000  -9.990000000000000E2   0.000000000000000  
 9.400000000000000E9    -9.990000000000000E2   0.000000000000000  -5.791230301521634  -9.435065890024616E1  -9.990000000000000E2   0.000000000000000  -9.990000000000000E2   0.000000000000000  
 9.420000000000000E9    -9.990000000000000E2   0.000000000000000  -5.984200618458003  -1.329509308277625E2  -9.990000000000000E2   0.000000000000000  -9.990000000000000E2   0.000000000000000  
 9.440000000000000E9    -9.990000000000000E2   0.000000000000000  -6.285625404051833  -1.716312789216229E2  -9.990000000000000E2   0.000000000000000  -9.990000000000000E2   0.000000000000000  
 9.460000000000000E9    -9.990000000000000E2   0.000000000000000  -6.691413115236466   1.512237907575074E2  -9.990000000000000E2   0.000000000000000  -9.990000000000000E2   0.000000000000000  
 9.480000000000000E9    -9.990000000000000E2   0.000000000000000  -6.883651242464167   1.158386945426151E2  -9.990000000000000E2   0.000000000000000  -9.990000000000000E2   0.000000000000000  
 9.500000000000000E9    -9.990000000000000E2   0.000000000000000  -6.754580642580407   7.995268971816968E1  -9.990000000000000E2   0.000000000000000  -9.990000000000000E2   0.000000000000000  
 9.520000000000000E9    -9.990000000000000E2   0.000000000000000  -6.597274219168543   4.264976249184204E1  -9.990000000000000E2   0.000000000000000  -9.990000000000000E2   0.000000000000000  
 9.540000000000000E9    -9.990000000000000E2   0.000000000000000  -6.528894139251335   5.508729214123010  -9.990000000000000E2   0.000000000000000  -9.990000000000000E2   0.000000000000000  
 9.560000000000000E9    -9.990000000000000E2   0.000000000000000  -6.324165929477373  -3.106881136525324E1  -9.990000000000000E2   0.000000000000000  -9.990000000000000E2   0.000000000000000  
 9.580000000000000E9    -9.990000000000000E2   0.000000000000000  -5.943699319697103  -6.864494621290120E1  -9.990000000000000E2   0.000000000000000  -9.990000000000000E2   0.000000000000000  
 9.600000000000000E9    -9.990000000000000E2   0.000000000000000  -5.629964043709232  -1.074912509554322E2  -9.990000000000000E2   0.000000000000000  -9.990000000000000E2   0.000000000000000  
 9.620000000000000E9    -9.990000000000000E2   0.000000000000000  -5.389150180858650  -1.464181746663378E2  -9.990000000000000E2   0.000000000000000  -9.990000000000000E2   0.000000000000000  
 9.640000000000000E9    -9.990000000000000E2   0.000000000000000  -5.137537975040779   1.741545187675525E2  -9.990000000000000E2   0.000000000000000  -9.990000000000000E2   0.000000000000000  
 9.660000000000000E9    -9.990000000000000E2   0.000000000000000  -5.012270693727917   1.340349098432230E2  -9.990000000000000E2   0.000000000000000  -9.990000000000000E2   0.000000000000000  
 9.680000000000000E9    -9.990000000000000E2   0.000000000000000  -4.981040978195057   9.430496834072928E1  -9.990000000000000E2   0.000000000000000  -9.990000000000000E2   0.000000000000000  
 9.700000000000000E9    -9.990000000000000E2   0.000000000000000  -4.977666638421279   5.449980067600708E1  -9.990000000000000E2   0.000000000000000  -9.990000000000000E2   0.000000000000000  
 9.720000000000000E9    -9.990000000000000E2   0.000000000000000  -5.121690235852180   1.470172477047228E1  -9.990000000000000E2   0.000000000000000  -9.990000000000000E2   0.000000000000000  
 9.740000000000000E9    -9.990000000000000E2   0.000000000000000  -5.352426625482345  -2.373643159210992E1  -9.990000000000000E2   0.000000000000000  -9.990000000000000E2   0.000000000000000  
 9.760000000000000E9    -9.990000000000000E2   0.000000000000000  -5.406758093104848  -6.124107795972866E1  -9.990000000000000E2   0.000000000000000  -9.990000000000000E2   0.000000000000000  
 9.780000000000000E9    -9.990000000000000E2   0.000000000000000  -5.344159641666670  -9.970529888534894E1  -9.990000000000000E2   0.000000000000000  -9.990000000000000E2   0.000000000000000  
 9.800000000000000E9    -9.990000000000000E2   0.000000000000000  -5.443334313126679  -1.385589737094298E2  -9.990000000000000E2   0.000000000000000  -9.990000000000000E2   0.000000000000000  
 9.820000000000000E9    -9.990000000000000E2   0.000000000000000  -5.531226868365400  -1.760261866197608E2  -9.990000000000000E2   0.000000000000000  -9.990000000000000E2   0.000000000000000  
 9.840000000000000E9    -9.990000000000000E2   0.000000000000000  -5.391108093312247   1.462211633279155E2  -9.990000000000000E2   0.000000000000000  -9.990000000000000E2   0.000000000000000  
 9.860000000000000E9    -9.990000000000000E2   0.000000000000000  -5.285908886463655   1.066549401640762E2  -9.990000000000000E2   0.000000000000000  -9.990000000000000E2   0.000000000000000  
 9.880000000000000E9    -9.990000000000000E2   0.000000000000000  -5.523386549610438   6.700663875377471E1  -9.990000000000000E2   0.000000000000000  -9.990000000000000E2   0.000000000000000  
 9.900000000000000E9    -9.990000000000000E2   0.000000000000000  -5.862537822101221   2.988441827202622E1  -9.990000000000000E2   0.000000000000000  -9.990000000000000E2   0.000000000000000  
 9.920000000000000E9    -9.990000000000000E2   0.000000000000000  -5.850152657860893  -5.819093290716465  -9.990000000000000E2   0.000000000000000  -9.990000000000000E2   0.000000000000000  
 9.940000000000000E9    -9.990000000000000E2   0.000000000000000  -5.527876171432911  -4.339393225398747E1  -9.990000000000000E2   0.000000000000000  -9.990000000000000E2   0.000000000000000  
 9.960000000000000E9    -9.990000000000000E2   0.000000000000000  -5.400745952378352  -8.326963915229325E1  -9.990000000000000E2   0.000000000000000  -9.990000000000000E2   0.000000000000000  
 9.980000000000000E9    -9.990000000000000E2   0.000000000000000  -5.597757230842394  -1.223273548101640E2  -9.990000000000000E2   0.000000000000000  -9.990000000000000E2   0.000000000000000  
 1.000000000000000E10   -9.990000000000000E2   0.000000000000000  -5.750216733180992  -1.595810224313294E2  -9.990000000000000E2   0.000000000000000  -9.990000000000000E2   0.000000000000000  
 1.002000000000000E10   -9.990000000000000E2   0.000000000000000  -5.686267576819644   1.634169137225832E2  -9.990000000000000E2   0.000000000000000  -9.990000000000000E2   0.000000000000000  
