#  HZ   S   DB   R     50,00 
! Rohde & Schwarz ZVA67 4Ports - Version 3,60 - 1305,7002k04 SN: 101051
! Date: 2012-04-04 16:24:54
! Measurements: S11 S21 S12 S22 
! 
 8,000000000000000E9    -1,125392693210027E1  -1,702022096750549E2  -2,199577408197656  -1,044993016819118E2  -2,213118112159276  -1,040344684456250E2  -1,060050450922078E1  -1,664368253351691E2  
 8,020000000000000E9    -1,575533968395953E1  -1,661158093388723E2  -1,974636717244134  -1,212819693806228E2  -1,988430771499868  -1,208077062811441E2  -1,420927744547534E1  -1,603489962429059E2  
 8,040000000000000E9    -1,859353240318646E1  -1,248753156178021E2  -1,918770868147742  -1,383477776269800E2  -1,932498580586269  -1,378718348420200E2  -1,603105071621749E1  -1,300493134456825E2  
 8,060000000000000E9    -1,406187264191726E1  -9,851787555639771E1  -2,037978302988265  -1,552046335380744E2  -2,052386763293497  -1,547180486715985E2  -1,296642378565393E1  -1,084101088295408E2  
 8,080000000000000E9    -1,028470539636315E1  -1,004062332995879E2  -2,298974541347109  -1,714128083098509E2  -2,313105301861117  -1,709211962037401E2  -9,796923991027670  -1,079830182478798E2  
 8,100000000000000E9    -7,896623186522959  -1,092775979649796E2  -2,645960093571687   1,732743088628450E2  -2,661388859616585   1,737718903962641E2  -7,627124696312237  -1,151332713236888E2  
 8,120000000000000E9    -6,349431646973205  -1,199271621475316E2  -3,022243391330008   1,589005685872263E2  -3,037759527992671   1,594124205526732E2  -6,180669701980552  -1,246240554362744E2  
 8,140000000000000E9    -5,321066185454778  -1,309076946813058E2  -3,380388413456867   1,453818109391449E2  -3,395225278272243   1,459010341789031E2  -5,215499796982859  -1,347881712888105E2  
 8,160000000000000E9    -4,641175607927015  -1,417814323382827E2  -3,692551928732065   1,325779139887315E2  -3,707319974299556   1,331022619052565E2  -4,577818949770239  -1,450555848160261E2  
 8,180000000000000E9    -4,198744068578156  -1,524220381780068E2  -3,932176887776720   1,203299779100611E2  -3,945974938376508   1,208697025606457E2  -4,166197544289234  -1,552366770021986E2  
 8,200000000000000E9    -3,935843594217054  -1,628986551490527E2  -4,089342197243182   1,084460733972087E2  -4,104149038370823   1,089696259024324E2  -3,922067702361502  -1,653170859633283E2  
 8,220000000000000E9    -3,813165530866192  -1,732467870091770E2  -4,160125015130896   9,676598271500551E1  -4,175472202616677   9,729408386601250E1  -3,817716811043221  -1,753523243117551E2  
 8,240000000000000E9    -3,820451527106026   1,764779028383425E2  -4,144210184999389   8,515399709513338E1  -4,159636352726117   8,569271916072772E1  -3,838898557034620   1,746015347204729E2  
 8,260000000000000E9    -3,959240120085459   1,661920724798821E2  -4,045071079631728   7,347024584769308E1  -4,058800020058474   7,401301525510658E1  -3,980759275290637   1,644901487789460E2  
 8,280000000000000E9    -4,237316530437099   1,558302019391850E2  -3,863463229086686   6,158654545259572E1  -3,877288524302476   6,213322775480488E1  -4,255896978954402   1,542477956074595E2  
 8,300000000000000E9    -4,685618680905808   1,453339379525690E2  -3,613048942804886   4,937433760393268E1  -3,627121994872232   4,991239014192188E1  -4,694351903402607   1,438178348036345E2  
 8,320000000000000E9    -5,348968033911304   1,347235603825669E2  -3,308670861317824   3,669053558916563E1  -3,322764395548442   3,721538063273252E1  -5,345348821229139   1,331899570625218E2  
 8,340000000000000E9    -6,299692478561714   1,241546003346118E2  -2,969024842261903   2,342543595936865E1  -2,986043041717756   2,394328769542242E1  -6,285966483153460   1,224710008243304E2  
 8,360000000000000E9    -7,656834905127183   1,140240210720230E2  -2,627123741290008   9,516922719100453  -2,643701193667238   1,004907263653019E1  -7,634967847904886   1,120661451058359E2  
 8,380000000000000E9    -9,599406473550037   1,052806713105278E2  -2,309929817473085  -5,033308920092411  -2,324995082141481  -4,507123180497396  -9,585845187618062   1,027900130059419E2  
 8,400000000000000E9    -1,241390421318399E1   1,007075879933364E2  -2,055640200432321  -2,021313381439026E1  -2,070432284783168  -1,968853954802489E1  -1,246751852897845E1   9,727489651398884E1  
 8,420000000000000E9    -1,614872295390717E1   1,088452141317334E2  -1,899685368568284  -3,582184654692217E1  -1,914916184463823  -3,529953499913690E1  -1,652719276212105E1   1,042780983096290E2  
 8,440000000000000E9    -1,773849834432047E1   1,412255158579938E2  -1,867255617463866  -5,160188247708759E1  -1,876098557935189  -5,103675243099682E1  -1,862409639269076E1   1,401816397805767E2  
 8,460000000000000E9    -1,451759543886649E1   1,625652202033753E2  -1,950940464990705  -6,721801483795026E1  -1,960106206230554  -6,665239097552602E1  -1,497367636381210E1   1,644957827308047E2  
 8,480000000000000E9    -1,130451486035148E1   1,631808802527869E2  -2,134177751147276  -8,240938121905687E1  -2,142810621098968  -8,183680986029016E1  -1,148387606057532E1   1,648252721376051E2  
 8,500000000000000E9    -9,066150161370086   1,563684966987927E2  -2,382388934836738  -9,699420718152778E1  -2,391467653425996  -9,641568812467878E1  -9,131584574165393   1,575023035168197E2  
 8,520000000000000E9    -7,527305570934942   1,471620284444390E2  -2,661132909690886  -1,109289270546047E2  -2,669623967115891  -1,103368716166083E2  -7,536224450533372   1,477872398482859E2  
 8,540000000000000E9    -6,460815598086173   1,371214014093725E2  -2,938198338808687  -1,242252036223290E2  -2,946794146565045  -1,236329805831217E2  -6,439573112898142   1,372842174807921E2  
 8,560000000000000E9    -5,724052382283019   1,268323257899321E2  -3,184957267709448  -1,369628532355422E2  -3,194741470609394  -1,363656274729758E2  -5,688783958379598   1,265975925548787E2  
 8,580000000000000E9    -5,227132693903169   1,165475195816083E2  -3,387800861325509  -1,492495253902363E2  -3,397092221619697  -1,486531793728022E2  -5,185559987848348   1,159506274545546E2  
 8,600000000000000E9    -4,908898931548595   1,063281219486929E2  -3,531970205971349  -1,612132741034011E2  -3,541566183759616  -1,606165783562417E2  -4,870262094595843   1,053901778505317E2  
 8,620000000000000E9    -4,735250852929660   9,619865375505043E1  -3,610621623632566  -1,729688084739420E2  -3,620155809975005  -1,723666598771889E2  -4,708535756654674   9,488525287265392E1  
 8,640000000000000E9    -4,689332306947790   8,613054560765767E1  -3,622618180671913   1,753696119373123E2  -3,632283723279522   1,759733453498365E2  -4,681927623659790   8,440373258599040E1  
 8,660000000000000E9    -4,770760890463746   7,609804794459129E1  -3,568084367475472   1,636969936647301E2  -3,577818044464194   1,642896725088533E2  -4,784629947051486   7,389194283303803E1  
 8,680000000000000E9    -4,985495318004156   6,604073533253221E1  -3,449690111828182   1,518887481704027E2  -3,458529134165422   1,524714973690145E2  -5,022588675744315   6,332562314871414E1  
 8,700000000000000E9    -5,359131230058233   5,593436427355272E1  -3,275614625965068   1,398542759529455E2  -3,284402308763715   1,404271721228296E2  -5,417162602964810   5,268658434711978E1  
 8,720000000000000E9    -5,924815987425272   4,579251189239804E1  -3,058711610739545   1,274983949994783E2  -3,067852673817090   1,280549206167001E2  -5,999099167547954   4,195622335554165E1  
 8,740000000000000E9    -6,723739906685506   3,574928359991101E1  -2,810964080297524   1,147279630673886E2  -2,819606062465628   1,152855360811642E2  -6,826874590502699   3,118840731206051E1  
 8,760000000000000E9    -7,834680901425242   2,604731840701140E1  -2,550268571484871   1,015066381745364E2  -2,558757849831121   1,020436883532017E2  -7,987889610393928   2,062187466931339E1  
 8,780000000000000E9    -9,381647097012868   1,733158023411884E1  -2,300565326524134   8,779041819341009E1  -2,310004429140530   8,831940271630599E1  -9,618163080617684   1,075509828012896E1  
 8,800000000000000E9    -1,154076478317143E1   1,114915475241604E1  -2,086249520463709   7,361214890134355E1  -2,096574710011367   7,414457777406626E1  -1,193449340255743E1   2,906969057021369  
 8,820000000000000E9    -1,447083463792038E1   1,144812322381188E1  -1,931087844294989   5,905704821987070E1  -1,941465060662830   5,958590938414024E1  -1,528721320452129E1   1,042555518536165  
 8,840000000000000E9    -1,749411188394772E1   2,754055969689737E1  -1,852923821923372   4,426683649836675E1  -1,863404502781440   4,480587748360950E1  -1,941248648853556E1   1,826571029267566E1  
 8,860000000000000E9    -1,717015400335476E1   5,684812005871236E1  -1,864594954367781   2,941687670451451E1  -1,874871142354110   2,995330779537967E1  -1,902411657788539E1   5,764962009148400E1  
 8,880000000000000E9    -1,403029084212852E1   6,981406488254989E1  -1,978996028042032   1,476586064546272E1  -1,989099662902522   1,529318452364389E1  -1,508811871946889E1   7,111425782942189E1  
 8,900000000000000E9    -1,133850909388016E1   6,784865998726561E1  -2,120509262820561   6,924157673146553E-1  -2,131364882963075   1,233505116479082  -1,193649404353588E1   6,979572393155269E1  
 8,920000000000000E9    -9,421386275446348   6,135672944919866E1  -2,310622650319276  -1,324009401744848E1  -2,320829420569080  -1,268868575074959E1  -9,715434870808998   6,162270191740501E1  
 8,940000000000000E9    -8,032674182203719   5,272284225661215E1  -2,533218459272549  -2,665400567546312E1  -2,543140536213827  -2,609973952441529E1  -8,203627228707925   5,172732166381258E1  
 8,960000000000000E9    -7,041042033450132   4,320107250398290E1  -2,754771510702366  -3,957085117376241E1  -2,764891309723963  -3,901739915492035E1  -7,140140691623878   4,124971632526070E1  
 8,980000000000000E9    -6,341563401619101   3,334438871456084E1  -2,955455982218926  -5,205867784376877E1  -2,966007226124395  -5,149361393746889E1  -6,397858450332317   3,060749034629945E1  
 9,000000000000000E9    -5,869631414455436   2,338650723169828E1  -3,123219864213078  -6,418415835972613E1  -3,133660837918425  -6,362350389761654E1  -5,896247905784253   1,997761506407574E1  
 9,020000000000000E9    -5,568452467952910   1,336072878334406E1  -3,250085141257511  -7,605059302688413E1  -3,261752087593095  -7,548078169268001E1  -5,590416264078731   9,364127874792411  
 9,040000000000000E9    -5,417028614715561   3,271330790515917  -3,321236914877617  -8,757439186557973E1  -3,331722748020602  -8,700303998237068E1  -5,452388390805687  -7,292395495565875E-1  
 9,060000000000000E9    -5,406383994899314  -6,722826678078181  -3,317397233716922  -9,919231906680648E1  -3,327474354321901  -9,861477934896264E1  -5,389812422903806  -1,112604183695347E1  
 9,080000000000000E9    -5,519666596861756  -1,676292486936860E1  -3,268765606823963  -1,108279170187166E2  -3,279531490222224  -1,102495870686935E2  -5,493421882652711  -2,153537720530347E1  
 9,100000000000000E9    -5,771523320702860  -2,687546609615928E1  -3,169751971329431  -1,225638421814529E2  -3,180319726624419  -1,219867554433332E2  -5,739312590548000  -3,192069040652014E1  
 9,120000000000000E9    -6,181898122249414  -3,706765667958480E1  -3,024680709888140  -1,344952818248709E2  -3,036134599146422  -1,339118179296497E2  -6,150324234079323  -4,229424762625990E1  
 9,140000000000000E9    -6,781468193652729  -4,729363323199502E1  -2,843225224979880  -1,467160924002354E2  -2,854401292033380  -1,461268917706205E2  -6,761663600304135  -5,264538395926520E1  
 9,160000000000000E9    -7,621562176494001  -5,744656971740604E1  -2,639338884905214  -1,592701491879028E2  -2,649585739391516  -1,586720808892748E2  -7,622253774130927  -6,284455683223278E1  
 9,180000000000000E9    -8,779210772460395  -6,723351065996623E1  -2,426776334128762  -1,722214034276822E2  -2,436594431911455  -1,716261201309319E2  -8,809278422271111  -7,264861007263627E1  
 9,200000000000000E9    -1,038652093970530E1  -7,606840359976232E1  -2,228175959860635   1,744223627016850E2  -2,239496022937380   1,750002716090425E2  -1,044075653252838E1  -8,147549378448697E1  
 9,220000000000000E9    -1,259617758405423E1  -8,194311892962413E1  -2,052501745148620   1,607653586797645E2  -2,064932763792981   1,613574263256623E2  -1,274201591692688E1  -8,781458444101038E1  
 9,240000000000000E9    -1,558132679803577E1  -8,174919029185014E1  -1,928463717977003   1,467175450110400E2  -1,940735131508714   1,473284830014151E2  -1,588506938133370E1  -8,739564083505000E1  
 9,260000000000000E9    -1,875864630224680E1  -6,522799436901640E1  -1,869818573747064   1,325147714981089E2  -1,881323152584260   1,331150543879750E2  -1,925317277053719E1  -6,924024833039172E1  
 9,280000000000000E9    -1,841397902788915E1  -3,422678810713830E1  -1,880963759758776   1,182739147052213E2  -1,892988462108452   1,188851288010447E2  -1,867068561425980E1  -3,603683874371631E1  
 9,300000000000000E9    -1,514539859913684E1  -2,089137143874070E1  -1,960285259488753   1,041645296108780E2  -1,971942526300349   1,047836108239750E2  -1,518083166965992E1  -2,297147466762606E1  
 9,320000000000000E9    -1,229098424791384E1  -2,200126398011907E1  -2,096967825766370   9,031928095592139E1  -2,107597708372759   9,093944647822737E1  -1,227629648189865E1  -2,446604762594637E1  
 9,340000000000000E9    -1,020974796755512E1  -2,859907303263123E1  -2,273367430687030   7,682721090294696E1  -2,284380762487165   7,745281631949727E1  -1,019098671867298E1  -3,123593787550153E1  
 9,360000000000000E9    -8,702294256193362  -3,731729005171454E1  -2,472028004291015   6,373458397337445E1  -2,482937628254895   6,437329887714068E1  -8,692485991012198  -4,004496511237878E1  
 9,380000000000000E9    -7,609542115401979  -4,686331911929295E1  -2,673457275543011   5,106548278383458E1  -2,683597529048685   5,169526975263752E1  -7,605600274372081  -4,968776008204712E1  
 9,400000000000000E9    -6,824824558551479  -5,672313855317131E1  -2,860480529833185   3,876954475269895E1  -2,871635070896348   3,940674418123153E1  -6,822075608224312  -5,964520583313396E1  
 9,420000000000000E9    -6,272308764163012  -6,667129197840539E1  -3,019336183894879   2,679824117509234E1  -3,030590299270751   2,744750110227185E1  -6,273755740701057  -6,967522946226738E1  
 9,440000000000000E9    -5,908323683137241  -7,663662956013501E1  -3,140138004869638   1,508266174503583E1  -3,149899108115171   1,575052967545159E1  -5,904584796027338  -7,966760744363590E1  
 9,460000000000000E9    -5,700606918483078  -8,658254560428226E1  -3,216400928427489   3,556345994134131  -3,226048600571255   4,208265589183902  -5,690947025027222  -8,963591428869727E1  
 9,480000000000000E9    -5,628181628504719  -9,648970987380338E1  -3,242868615990640  -7,871541083344202  -3,253973617790705  -7,225136703236227  -5,623393641259546  -9,956199492636874E1  
 9,500000000000000E9    -5,687274188483934  -1,063703103382480E2  -3,217674270049456  -1,928769717734876E1  -3,229188746976849  -1,864634267986893E1  -5,689999439054704  -1,094591805040796E2  
 9,520000000000000E9    -5,889518667875316  -1,162530939935195E2  -3,144752747752581  -3,078191122835442E1  -3,155992154518229  -3,013455514739478E1  -5,897090999266171  -1,193594527946907E2  
 9,540000000000000E9    -6,248995302832104  -1,261558999097066E2  -3,026513536085000  -4,243794100752911E1  -3,037085927183645  -4,179744143786265E1  -6,259356663376027  -1,292830352269231E2  
 9,560000000000000E9    -6,792096491943537  -1,360469156957742E2  -2,870677675979920  -5,433635158111486E1  -2,882188683940130  -5,370522962677521E1  -6,809450360480102  -1,391951859082927E2  
 9,580000000000000E9    -7,562779515725179  -1,458164747092014E2  -2,690019553151926  -6,652511904200172E1  -2,701727149740163  -6,589418390033275E1  -7,588429209243735  -1,489703018511895E2  
 9,600000000000000E9    -8,626021155621661  -1,552631810822585E2  -2,495888001378792  -7,907196259668291E1  -2,506494757625607  -7,845036260187986E1  -8,663960414969509  -1,583775166421549E2  
 9,620000000000000E9    -1,008762879797867E1  -1,638331133726457E2  -2,306583388914299  -9,199803576806978E1  -2,316547311453822  -9,138581816998254E1  -1,014067714691878E1  -1,668935162302589E2  
 9,640000000000000E9    -1,209270102353783E1  -1,702689093576020E2  -2,139733513718649  -1,052914196462854E2  -2,149351955205074  -1,046882278650246E2  -1,217346548116591E1  -1,732952507194634E2  
 9,660000000000000E9    -1,482231796001640E1  -1,715154975288304E2  -2,013783268980326  -1,188905424994214E2  -2,023789559794231  -1,182843416995061E2  -1,495298983709696E1  -1,744832913666690E2  
 9,680000000000000E9    -1,799193119713072E1  -1,597752637077108E2  -1,943101432696623  -1,326965511166888E2  -1,953279138776361  -1,321050946994225E2  -1,820162903970626E1  -1,623326539709206E2  
 9,700000000000000E9    -1,874327888355374E1  -1,305373121223220E2  -1,936138469235911  -1,465881208430438E2  -1,946629927255331  -1,459926094711734E2  -1,893540327989297E1  -1,321589525103208E2  
 9,720000000000000E9    -1,590109749307566E1  -1,122230640830720E2  -1,995552549437864  -1,604236971375928E2  -2,006230274164012  -1,598086785307590E2  -1,600556771174526E1  -1,135646370272011E2  
 9,740000000000000E9    -1,295514766802046E1  -1,104479545822485E2  -2,114287916953866  -1,740448187772282E2  -2,125095039191164  -1,734322259024297E2  -1,301606551332614E1  -1,117188495126397E2  
 9,760000000000000E9    -1,073842992667726E1  -1,156398366572104E2  -2,276615458312168   1,726441546144998E2  -2,288172961986373   1,732627247725778E2  -1,078763736711940E1  -1,168600966940242E2  
 9,780000000000000E9    -9,122142106277542  -1,236173308556527E2  -2,465925872580105   1,596992726259443E2  -2,477191918025449   1,603349849767078E2  -9,168024585178491  -1,247185710524167E2  
 9,800000000000000E9    -7,941006584759498  -1,327178197754558E2  -2,664445875732437   1,471597095205932E2  -2,675008050191094   1,477615304005034E2  -7,983790000363395  -1,336700764280736E2  
 9,820000000000000E9    -7,083499687825485  -1,422737573359389E2  -2,855698958521743   1,349833465404886E2  -2,866177513549370   1,356473772445530E2  -7,123283026553313  -1,431353856542236E2  
 9,840000000000000E9    -6,469862444266044  -1,519794548817588E2  -3,020226216385339   1,231615164974170E2  -3,031194433098501   1,238234732134834E2  -6,511510821477291  -1,527390017320064E2  
 9,860000000000000E9    -6,054225108158432  -1,617309730910921E2  -3,152539195238753   1,115999500987901E2  -3,162807402279017   1,122641454256607E2  -6,098627867045670  -1,623632138630105E2  
 9,880000000000000E9    -5,800838551386104  -1,714564997914115E2  -3,244137859338211   1,002257680101480E2  -3,253436855058669   1,008974272690851E2  -5,848320056455543  -1,719870338137941E2  
 9,900000000000000E9    -5,690692309843446   1,788760553909265E2  -3,287454685337514   8,898222147141306E1  -3,297312462286876   8,964344795488775E1  -5,741650630979584   1,783987401841871E2  
 9,920000000000000E9    -5,717646226480335   1,693203125091176E2  -3,283398672671726   7,777787180251775E1  -3,293143401936547   7,843122643367511E1  -5,773497803003071   1,687831670141881E2  
 9,940000000000000E9    -5,877599171235111   1,598525657006788E2  -3,231128148275590   6,654501890493981E1  -3,241095567376165   6,718491802759300E1  -5,941594796253726   1,591492212655990E2  
 9,960000000000000E9    -6,179976828931374   1,504118536713939E2  -3,129695492006850   5,519009579654428E1  -3,138863540271983   5,581873113840117E1  -6,264471215310131   1,494542143268417E2  
 9,980000000000000E9    -6,669390294379674   1,410170242563632E2  -2,986365507612958   4,360051441649438E1  -2,996187281966986   4,421779588097620E1  -6,776151215454171   1,397414738372586E2  
 1,000000000000000E10   -7,377052171749197   1,318065313714353E2  -2,813462883890816   3,173169035803784E1  -2,823838722348588   3,233340792557739E1  -7,517721344669053   1,301123676153765E2  
 1,002000000000000E10   -8,368393236741332   1,230134667418661E2  -2,623345033203664   1,950634652780663E1  -2,633751953689063   2,010153067502539E1  -8,554633053635271   1,207072384661972E2  
