#  HZ   S   DB   R     50.00 
! Rohde & Schwarz ZVA67 4Ports - Version 3.60 - 1305.7002k04 SN: 101051
! Date: 2012-04-04 16:11:28
! Measurements: S11 S21 S12 S22 
! 
 8.000000000000000E9    -1.099160935495366E1  -1.636742906509303E2  -2.516276547425683  -1.063413529977120E2  -2.515377206793101  -1.063883062080274E2  -1.073406486239937E1  -1.670640825843748E2  
 8.020000000000000E9    -1.471934137534514E1  -1.562442351050975E2  -2.301752198443838  -1.231496728250243E2  -2.301150680288097  -1.231973358348483E2  -1.414234823031830E1  -1.595482755056399E2  
 8.040000000000000E9    -1.616081264776734E1  -1.239520774367883E2  -2.256523684094336  -1.402057196503884E2  -2.257053108310203  -1.402566644696235E2  -1.547339237190137E1  -1.307489643276688E2  
 8.060000000000000E9    -1.280595506650727E1  -1.043907778365927E2  -2.383562015589197  -1.570244712960485E2  -2.383492734184237  -1.570734377167411E2  -1.256423225098192E1  -1.118818883083474E2  
 8.080000000000000E9    -9.649486587901011  -1.052944079354905E2  -2.648073524648537  -1.731835145190060E2  -2.648435394712390  -1.732264129998752E2  -9.596317444015057  -1.117954250128261E2  
 8.100000000000000E9    -7.516928125273142  -1.130368166596922E2  -2.996499212258658   1.715592442488324E2  -2.997135576070456   1.715205028791416E2  -7.530642024198368  -1.187824215718380E2  
 8.120000000000000E9    -6.099374454108414  -1.228579020289230E2  -3.369162266437217   1.572418319881435E2  -3.369778228256891   1.572012852346291E2  -6.137154781563995  -1.280701503747208E2  
 8.140000000000000E9    -5.147285557150244  -1.332326519758814E2  -3.723002893629267   1.437560964152630E2  -3.722350448771382   1.437120327595140E2  -5.199372327135302  -1.380721662814811E2  
 8.160000000000000E9    -4.513778983935769  -1.436259254530270E2  -4.029192085017940   1.309798613157590E2  -4.030238312621895   1.309377423451373E2  -4.578453568347644  -1.482078040063050E2  
 8.180000000000000E9    -4.102502124733412  -1.538880210552226E2  -4.263652781836743   1.187469695813582E2  -4.262762466690949   1.187180836995201E2  -4.173050691114028  -1.582852540644375E2  
 8.200000000000000E9    -3.863204218605298  -1.640279166415548E2  -4.413905527353095   1.068828687711517E2  -4.414338795056985   1.068385608547305E2  -3.933291311663180  -1.682962331070017E2  
 8.220000000000000E9    -3.758219138827072  -1.740790838215358E2  -4.477561764546975   9.521362787970345E1  -4.478218055956533   9.517592643398898E1  -3.832042711534915  -1.782656204703425E2  
 8.240000000000000E9    -3.775918237559413   1.759178425757750E2  -4.453506302787791   8.359993301711801E1  -4.454496726069707   8.356708962551257E1  -3.856902305820444   1.717412583218593E2  
 8.260000000000000E9    -3.918755450499578   1.658938875370742E2  -4.345382505449055   7.191213246731566E1  -4.344164743122807   7.188208646272540E1  -4.001139790685055   1.616817550242538E2  
 8.280000000000000E9    -4.197394786041480   1.558187707255065E2  -4.155044259070501   6.000270354139652E1  -4.154770030794824   5.997704284811777E1  -4.282730859452097   1.514795524379721E2  
 8.300000000000000E9    -4.642536603188978   1.456615379902324E2  -3.896609486359982   4.774023736009495E1  -3.896141297548912   4.770145494963541E1  -4.728306093885956   1.411055124699200E2  
 8.320000000000000E9    -5.301408638743345   1.354918675753431E2  -3.586696435864611   3.497433704929316E1  -3.586773032425528   3.493464447516972E1  -5.390842436304749   1.306073363665107E2  
 8.340000000000000E9    -6.239729955787711   1.255738786146768E2  -3.252805369873940   2.164223755563933E1  -3.254737643608096   2.160165585933525E1  -6.339389492134739   1.201497531286489E2  
 8.360000000000000E9    -7.538219870252975   1.162406034185929E2  -2.910895725177328   7.779889002828218  -2.912148114208998   7.742931193022687  -7.678856553381924   1.100203580389730E2  
 8.380000000000000E9    -9.394295135073380   1.084422286736132E2  -2.583824937456198  -6.821341809275504  -2.584530116977604  -6.853733445618675  -9.634253105823989   1.011776379533175E2  
 8.400000000000000E9    -1.199669197711672E1   1.053493671409934E2  -2.328148331196630  -2.207264906639077E1  -2.328733492625688  -2.210639276718475E1  -1.247868779835901E1   9.666415406520322E1  
 8.420000000000000E9    -1.509428520665687E1   1.144321907681726E2  -2.176391098855725  -3.773395349135519E1  -2.176815245162194  -3.777602409859880E1  -1.624175397499772E1   1.052950747789181E2  
 8.440000000000000E9    -1.605611543330126E1   1.407439307578052E2  -2.151435400387286  -5.355009743149525E1  -2.145585932613281  -5.355681884352023E1  -1.769288123784097E1   1.382304610811979E2  
 8.460000000000000E9    -1.347608659174001E1   1.580174852673738E2  -2.243318845463258  -6.916488137747844E1  -2.237417444143760  -6.916871580303179E1  -1.440144755384650E1   1.588783492562225E2  
 8.480000000000000E9    -1.069464504390449E1   1.589937625988125E2  -2.430006238534696  -8.428846726772409E1  -2.424925893610594  -8.429834166416686E1  -1.121704032528726E1   1.592467955855505E2  
 8.500000000000000E9    -8.660385375864742   1.530611648982674E2  -2.672949409469910  -9.884897683517006E1  -2.668316709515116  -9.885891430658533E1  -8.970884584269470   1.523782848807637E2  
 8.520000000000000E9    -7.223139486529371   1.445999730349140E2  -2.948240284260257  -1.127771362260309E2  -2.943355835086006  -1.127828280683723E2  -7.428282198792963   1.429244425851678E2  
 8.540000000000000E9    -6.214266271226864   1.351430087360176E2  -3.221283115922380  -1.260729223450679E2  -3.216284506005390  -1.260846737080445E2  -6.364511976884097   1.326220263473451E2  
 8.560000000000000E9    -5.514337472505701   1.253478645181714E2  -3.464931967134187  -1.388142481423196E2  -3.460814663958743  -1.388237951040674E2  -5.632786586842464   1.221014878919597E2  
 8.580000000000000E9    -5.040941402244511   1.154876663815953E2  -3.664820120980075  -1.511209277818447E2  -3.660729152306060  -1.511267636788374E2  -5.140938404791244   1.115738715168740E2  
 8.600000000000000E9    -4.740619623886631   1.056476984429627E2  -3.806518237436970  -1.630952282003122E2  -3.802670143149414  -1.631004109269898E2  -4.830848328910591   1.011075074450300E2  
 8.620000000000000E9    -4.583935880390166   9.586755903074119E1  -3.884075910260892  -1.748702868440291E2  -3.880308569897506  -1.748690088139222E2  -4.670605238148585   9.067584503889687E1  
 8.640000000000000E9    -4.553962489879988   8.612763002360107E1  -3.894807218887381   1.734592398109184E2  -3.890564655860634   1.734556409490564E2  -4.643226617354086   8.025345432906731E1  
 8.660000000000000E9    -4.647840702953093   7.639153256343653E1  -3.839229715032216   1.617691121615642E2  -3.834269258770678   1.617585418221845E2  -4.744084892055270   6.979168235906084E1  
 8.680000000000000E9    -4.869103875989596   6.663141437008532E1  -3.717858428319488   1.499525287970781E2  -3.713289375688664   1.499380202951851E2  -4.980604051754336   5.927069238202114E1  
 8.700000000000000E9    -5.244886913010088   5.684800645381777E1  -3.542415584478342   1.378954877074077E2  -3.537207345899458   1.378890817644904E2  -5.372072277163333   4.866335575094139E1  
 8.720000000000000E9    -5.804928585103303   4.707578084072473E1  -3.322924875206958   1.255088014778342E2  -3.318411158039815   1.255004197679341E2  -5.951438480340711   3.794377940065149E1  
 8.740000000000000E9    -6.590901919798301   3.747989142179875E1  -3.072769899486206   1.127124898293868E2  -3.067654202601964   1.127040010335053E2  -6.777186982666899   2.721947220124061E1  
 8.760000000000000E9    -7.679177964363658   2.836333406490237E1  -2.812428464983404   9.944150984689713E1  -2.807353795167564   9.942077104909161E1  -7.935346437777795   1.675190668991574E1  
 8.780000000000000E9    -9.159355046340526   2.053856366584913E1  -2.571808646615913   8.567876981292811E1  -2.567241026600404   8.566450383778030E1  -9.544931380573138   7.141654907123303  
 8.800000000000000E9    -1.109359775742488E1   1.533498984086721E1  -2.362264543197362   7.159336137951968E1  -2.358283314306285   7.157507522994807E1  -1.177698186471561E1  -5.842884649957025E-1  
 8.820000000000000E9    -1.361920783897622E1   1.579348470254192E1  -2.191755465004959   5.704936015731522E1  -2.188416497433686   5.703144967454424E1  -1.503354367460516E1  -2.735802118192448  
 8.840000000000000E9    -1.605545949346729E1   2.902840604818210E1  -2.106417579953619   4.217499598442257E1  -2.102814893094853   4.215985951228559E1  -1.901753084145144E1   1.325651138958507E1  
 8.860000000000000E9    -1.598944674317819E1   5.229286840735745E1  -2.122641507893972   2.718543070871797E1  -2.118797418804864   2.716639208197780E1  -1.888373308473420E1   5.020659719843572E1  
 8.880000000000000E9    -1.344682254798527E1   6.566208841588167E1  -2.296828248005218   1.243682934519891E1  -2.293307806615728   1.241697909895579E1  -1.553822246916186E1   6.463268080517375E1  
 8.900000000000000E9    -1.085231989783004E1   6.344022583647629E1  -2.401371934190017  -1.076951646673608  -2.398759580459307  -1.096177093019420  -1.200421965211918E1   6.675078541290772E1  
 8.920000000000000E9    -9.138700144899291   5.748894024341003E1  -2.562942784186402  -1.516343247007026E1  -2.558459835170501  -1.517766985245305E1  -9.682707177298035   5.773033255392114E1  
 8.940000000000000E9    -7.838627465957256   4.948853715431653E1  -2.779728331703582  -2.868286405877326E1  -2.776421459796007  -2.869737438501339E1  -8.171197431905771   4.759809437124580E1  
 8.960000000000000E9    -6.890005422586784   4.046012377195979E1  -3.002769359945632  -4.168178221800427E1  -2.999681651398168  -4.170292958640887E1  -7.118792947778185   3.711838592511581E1  
 8.980000000000000E9    -6.198338162839660   3.100653872514336E1  -3.212304826553080  -5.420218923954493E1  -3.209778489275347  -5.421671754100224E1  -6.375675300828681   2.662126934249096E1  
 9.000000000000000E9    -5.716457706473631   2.122688279252289E1  -3.379149158181248  -6.632061923468567E1  -3.376040879836063  -6.634387266977478E1  -5.853326219075335   1.610026408613682E1  
 9.020000000000000E9    -5.419245878341746   1.125147797490093E1  -3.499789456015589  -7.825714568236698E1  -3.497253109585565  -7.827175517747065E1  -5.515812615538602   5.581472878683246  
 9.040000000000000E9    -5.284543731948328   1.022915515843072  -3.584159459521089  -9.010089297922251E1  -3.580883599281156  -9.011950494007434E1  -5.330672393685160  -4.778898976680697  
 9.060000000000000E9    -5.574626982455377  -1.031138394730358E1  -3.745026766665983  -1.018763463351474E2  -3.742119209351057  -1.018940148957622E2  -5.215375279489268  -1.533416445523955E1  
 9.080000000000000E9    -5.577249299716142  -1.552743926251540E1  -3.533900914758774  -1.120928527036998E2  -3.531377909161358  -1.121086583117764E2  -5.463872197112258  -2.608140381748698E1  
 9.100000000000000E9    -5.673372103805226  -2.615530259815976E1  -3.405662035628810  -1.242884221858411E2  -3.402301395754795  -1.242977778694159E2  -5.700962211630549  -3.606918682788288E1  
 9.120000000000000E9    -6.046827872405264  -3.634211685430081E1  -3.259381177595734  -1.363526406163857E2  -3.256851269185071  -1.363787137180841E2  -6.096779402790356  -4.628683902409669E1  
 9.140000000000000E9    -6.624406877918728  -4.635643105629049E1  -3.079007105274942  -1.486382846485814E2  -3.075430180008122  -1.486626717174443E2  -6.690607331416628  -5.652384622347171E1  
 9.160000000000000E9    -7.444792921085663  -5.618530702488035E1  -2.875156844885151  -1.612343489672049E2  -2.872461895090626  -1.612579568242847E2  -7.530101878692923  -6.664823001259259E1  
 9.180000000000000E9    -8.580850606673890  -6.554017790489125E1  -2.664118066921968  -1.742066661117167E2  -2.661044028355740  -1.742349677232910E2  -8.691239742132167  -7.640193917494096E1  
 9.200000000000000E9    -1.014449379606057E1  -7.408064519356954E1  -2.473617374860639   1.723780049960424E2  -2.471472786565409   1.723447564710591E2  -1.028693774007845E1  -8.528554704497199E1  
 9.220000000000000E9    -1.238154355759174E1  -7.815780547715988E1  -2.282340016993743   1.589922043494228E2  -2.281226173226876   1.589716578128113E2  -1.264969332790892E1  -9.119004046501398E1  
 9.240000000000000E9    -1.501736032326477E1  -7.708058284860083E1  -2.142816657954747   1.447997059363538E2  -2.141533288858223   1.447884885430782E2  -1.565274427507905E1  -9.017878759264291E1  
 9.260000000000000E9    -1.760792955184952E1  -6.180336888823183E1  -2.081911079528012   1.305250531575263E2  -2.080285704431492   1.305009592329217E2  -1.875665055310560E1  -7.242768802822718E1  
 9.280000000000000E9    -1.725950034981949E1  -3.614959623094799E1  -2.092389901594997   1.162428658868671E2  -2.091309413735016   1.162181258680621E2  -1.816291729332227E1  -4.159783473645052E1  
 9.300000000000000E9    -1.449772010939907E1  -2.406488645053360E1  -2.172927390364519   1.020933740523321E2  -2.171025301331421   1.020770305213634E2  -1.488015309243191E1  -2.909418734998957E1  
 9.320000000000000E9    -1.190487979764746E1  -2.453696290586086E1  -2.311167300296894   8.822119290820480E1  -2.308809507997228   8.820632748823205E1  -1.207972734934086E1  -3.044240773845895E1  
 9.340000000000000E9    -9.947324173243576  -3.045629697877867E1  -2.489007997107012   7.471539980726968E1  -2.486809397337082   7.470872203082686E1  -1.004870486469849E1  -3.704382190657343E1  
 9.360000000000000E9    -8.510550656027718  -3.865445887566140E1  -2.688763079314562   6.162572075709492E1  -2.686135923525959   6.161457451894131E1  -8.581424263982395  -4.572018159541415E1  
 9.380000000000000E9    -7.464059002263229  -4.781487317030639E1  -2.889692401484096   4.896149438122946E1  -2.886716097029644   4.893780354872535E1  -7.520460566187594  -5.524182995823557E1  
 9.400000000000000E9    -6.707111677659596  -5.736660164082478E1  -3.074891869536646   3.667507861033036E1  -3.072789605554053   3.664799017322739E1  -6.755962518603393  -6.507483805709885E1  
 9.420000000000000E9    -6.169999013382772  -6.707311578023509E1  -3.230243001753953   2.471007162790122E1  -3.229095473391670   2.468597656981374E1  -6.222917323465051  -7.498213842529506E1  
 9.440000000000000E9    -5.817730273619372  -7.684384405234752E1  -3.347435227195705   1.298884103091838E1  -3.345190537917599   1.297845267728459E1  -5.866992379614363  -8.488054291365631E1  
 9.460000000000000E9    -5.619792819080569  -8.660600358141738E1  -3.418018525463066   1.450754609840954  -3.416836296004397   1.429665435110549  -5.664378845572407  -9.474043750037305E1  
 9.480000000000000E9    -5.556474351768968  -9.634126642428126E1  -3.440003687899473  -1.000290105140646E1  -3.439585536705521  -1.002371775276625E1  -5.605634348436339  -1.045607165025772E2  
 9.500000000000000E9    -5.622419929272630  -1.060801494392921E2  -3.412137040224601  -2.145481945712470E1  -3.410627103579473  -2.147539532485522E1  -5.678302947628722  -1.143535569693335E2  
 9.520000000000000E9    -5.827969405463879  -1.158169471339577E2  -3.336195737939129  -3.298468161391534E1  -3.334981667408633  -3.300432692739224E1  -5.890540172282794  -1.241612742151853E2  
 9.540000000000000E9    -6.187514860557562  -1.255437612342555E2  -3.215161075658783  -4.468082357447974E1  -3.213849241489420  -4.469562890941645E1  -6.257447246603297  -1.339648077915599E2  
 9.560000000000000E9    -6.727621473604000  -1.351931137436503E2  -3.058067268457567  -5.661356423911710E1  -3.057095727338470  -5.664017875898849E1  -6.811031857087453  -1.437616579075595E2  
 9.580000000000000E9    -7.492434569903309  -1.446270873036414E2  -2.875805615461311  -6.885161911475383E1  -2.875044192648152  -6.886736005839867E1  -7.595122806539006  -1.534005185601799E2  
 9.600000000000000E9    -8.548539745244845  -1.536003639031696E2  -2.681605777494982  -8.145480611733696E1  -2.680714492893729  -8.147086498290356E1  -8.679816013448004  -1.626482191303547E2  
 9.620000000000000E9    -9.992010529528452  -1.614501394494919E2  -2.494334852777957  -9.443731024547846E1  -2.492611647322114  -9.444919673338048E1  -1.017059935747593E1  -1.709009256186625E2  
 9.640000000000000E9    -1.192409552099531E1  -1.667634846646508E2  -2.334481915852714  -1.077742033751259E2  -2.332942800067889  -1.077952933307094E2  -1.220761657109122E1  -1.768214900312665E2  
 9.660000000000000E9    -1.439635916869850E1  -1.666174672120589E2  -2.214044404662423  -1.213525233666161E2  -2.213051644632481  -1.213743156186078E2  -1.493580621809459E1  -1.773740107701944E2  
 9.680000000000000E9    -1.698092437497396E1  -1.548485407685056E2  -2.140671977033719  -1.351748206095528E2  -2.139058291139474  -1.351907375573384E2  -1.804960196141695E1  -1.645337777642165E2  
 9.700000000000000E9    -1.733200227518361E1  -1.306158964834174E2  -2.133730869558417  -1.491071630884778E2  -2.133069674289124  -1.491204960670473E2  -1.852317186201355E1  -1.350065217766895E2  
 9.720000000000000E9    -1.492999756481039E1  -1.155126697807798E2  -2.197346826548267  -1.629737756418179E2  -2.197259802675557  -1.629859493733159E2  -1.559035014975836E1  -1.178634238643079E2  
 9.740000000000000E9    -1.232471224343233E1  -1.137758532748492E2  -2.323495056528533  -1.766212352834093E2  -2.322830894214986  -1.766307815399883E2  -1.267816763041351E1  -1.165780577288556E2  
 9.760000000000000E9    -1.028932056760182E1  -1.184415873054600E2  -2.493091047853361   1.700805722784133E2  -2.492962563762009   1.700634836482935E2  -1.050587439099596E1  -1.218960133650951E2  
 9.780000000000000E9    -8.774136482479580  -1.259037224040341E2  -2.688839351871667   1.571599337386739E2  -2.688097620602428   1.571442941744575E2  -8.928722284628181  -1.298210471056909E2  
 9.800000000000000E9    -7.658217310084680  -1.345871846204430E2  -2.890831596501364   1.446352184931072E2  -2.889323899468682   1.446209543313391E2  -7.779355112786699  -1.387797674579851E2  
 9.820000000000000E9    -6.850030100831798  -1.438189128683645E2  -3.083606316049944   1.325041043587135E2  -3.082667726487014   1.324886853958145E2  -6.947390787704992  -1.482120695219960E2  
 9.840000000000000E9    -6.276150826519134  -1.531968488790563E2  -3.251470058284000   1.207143993785894E2  -3.250112846193189   1.206940884431508E2  -6.356878070002212  -1.577597121641145E2  
 9.860000000000000E9    -5.886495960345043  -1.626053389610337E2  -3.382779040499178   1.091760681209964E2  -3.381052642966777   1.091561842043267E2  -5.960080520566820  -1.673253364468957E2  
 9.880000000000000E9    -5.655046436916912  -1.719905465943895E2  -3.473926018309167   9.782199824121577E1  -3.472899048454598   9.780327843128482E1  -5.725484840697685  -1.768676739685261E2  
 9.900000000000000E9    -5.562317273979636   1.787543666828408E2  -3.523546998002538   8.660610348169703E1  -3.523389802042676   8.658023554363162E1  -5.628372092926561   1.736704833182716E2  
 9.920000000000000E9    -5.578288931962371   1.695438435750078E2  -3.518412025570132   7.552181702096792E1  -3.517024053442869   7.549776738831066E1  -5.650105396205183   1.641618945097662E2  
 9.940000000000000E9    -5.733660286298403   1.601945516949030E2  -3.447449807374428   6.435123621626211E1  -3.447517419380055   6.431511002159370E1  -5.821200845311415   1.545413452591762E2  
 9.960000000000000E9    -6.052066511222659   1.508890909712556E2  -3.332149715139943   5.296953802258842E1  -3.330764331064560   5.293783261835227E1  -6.154977859187462   1.449122714619188E2  
 9.980000000000000E9    -6.553756673979419   1.417110355143588E2  -3.177570501979151   4.134664411253164E1  -3.177098380526481   4.130896338343069E1  -6.676529546256775   1.353128225745415E2  
 1.000000000000000E10   -7.273251886882146   1.327764365132072E2  -2.996135323155952   2.941267425866874E1  -2.995373484252616   2.937658358938440E1  -7.427842681238007   1.258260801141322E2  
