#  HZ   S   DB   R     50.00 
! Rohde & Schwarz ZVA67 4Ports - Version 3.60 - 1305.7002k04 SN: 101051
! Date: 2012-04-04 16:28:41
! Measurements: S11 S21 S12 S22 
! 
 8.000000000000000E9    -9.295474852889605  -7.275798275376414E1  -2.042949826593647  -1.543473573378260E2  -2.056809714876096  -1.538384075609557E2  -8.777904829462127  -8.557392226157347E1  
 8.020000000000000E9    -7.545199224603191  -8.294513983174241E1  -2.357350103207982  -1.671520048766093E2  -2.370360879654867  -1.666464789902609E2  -7.176003737241121  -9.356159843330484E1  
 8.040000000000000E9    -6.319548039086662  -9.344061108511576E1  -2.684611558830769  -1.793020118709537E2  -2.698506288669786  -1.787889080576080E2  -6.035663089081563  -1.025106333724195E2  
 8.060000000000000E9    -5.438943753681172  -1.038250875857448E2  -3.002060470664998   1.691413354928640E2  -3.015830054521760   1.696557172474471E2  -5.214491189797717  -1.117460477791040E2  
 8.080000000000000E9    -4.795154175664606  -1.139275297439609E2  -3.294827958470533   1.581032363618284E2  -3.309126365000443   1.586230857566278E2  -4.624135660573461  -1.209724558688705E2  
 8.100000000000000E9    -4.323794639447372  -1.237137302206666E2  -3.546419540589458   1.475228667386783E2  -3.561968391940515   1.480535907185479E2  -4.199143434811930  -1.300732932236757E2  
 8.120000000000000E9    -3.986163047075137  -1.332344470470987E2  -3.745564104585683   1.372706222094683E2  -3.760743603478705   1.378111565764465E2  -3.894282661033339  -1.390440461323908E2  
 8.140000000000000E9    -3.749691884886084  -1.425580270727961E2  -3.891142081058420   1.272454066937867E2  -3.904867067487367   1.277851198556219E2  -3.691142032083896  -1.479310202156611E2  
 8.160000000000000E9    -3.606631998234245  -1.517321036873254E2  -3.984287546593932   1.173931126944750E2  -3.998983470814718   1.179393155343526E2  -3.575676382719544  -1.567371147110424E2  
 8.180000000000000E9    -3.536481861443187  -1.608033963706185E2  -4.020531084903091   1.076381141350198E2  -4.034264925224926   1.081946267280336E2  -3.530820396140246  -1.655208705491335E2  
 8.200000000000000E9    -3.539365640349082  -1.698600280279081E2  -4.000386932689591   9.790875874344951E1  -4.015237679006580   9.845750180344817E1  -3.552780213809342  -1.743053301333971E2  
 8.220000000000000E9    -3.610260914718195  -1.789147935931066E2  -3.929274888487861   8.813951075502587E1  -3.944975742070664   8.869504232212223E1  -3.640935122535021   1.768679353078123E2  
 8.240000000000000E9    -3.756290097949113   1.720148308175711E2  -3.808495966564213   7.827165594666532E1  -3.824558596031932   7.884362083829450E1  -3.801933013498059   1.679375779121154E2  
 8.260000000000000E9    -3.988722302983887   1.628634952412633E2  -3.641850624946400   6.825328560144320E1  -3.655701283592747   6.883499590863492E1  -4.038321697646468   1.589041975919604E2  
 8.280000000000000E9    -4.319521988747991   1.536279002957265E2  -3.432404814214981   5.803071109743293E1  -3.446757771968469   5.861244543708923E1  -4.366737593792480   1.497270066361857E2  
 8.300000000000000E9    -4.768641163239887   1.442429194615461E2  -3.187998027937792   4.754776215871016E1  -3.203107000500034   4.811270773004124E1  -4.806445505116114   1.403748199049682E2  
 8.320000000000000E9    -5.363634468167636   1.347258471155673E2  -2.919000850281114   3.673570024854836E1  -2.934824868882938   3.729150275600816E1  -5.390633606773815   1.308321036695695E2  
 8.340000000000000E9    -6.146007248065060   1.251638730536766E2  -2.634158346314365   2.555769459145181E1  -2.651362883322541   2.610860183399771E1  -6.162588081056203   1.211375850066379E2  
 8.360000000000000E9    -7.176387082464449   1.157014418372530E2  -2.348335940115598   1.399626010103178E1  -2.365868592204483   1.454689007607104E1  -7.182230386294795   1.114512440242023E2  
 8.380000000000000E9    -8.543646161039595   1.066354439284346E2  -2.075277723223240   2.024687222989837  -2.091547747704200   2.576021952652868  -8.544233616605002   1.019643284961828E2  
 8.400000000000000E9    -1.038975603019184E1   9.865798111979365E1  -1.831939074257901  -1.034620614411921E1  -1.847842084003247  -9.798624809406912  -1.040180747528589E1   9.333631648299107E1  
 8.420000000000000E9    -1.292061417503997E1   9.344125589355822E1  -1.639028822407963  -2.305205422955096E1  -1.654820643497326  -2.250830957712123E1  -1.300205390341842E1   8.712320264723509E1  
 8.440000000000000E9    -1.639865182075814E1   9.569211547477480E1  -1.510071363694104  -3.600031436801177E1  -1.520512637836051  -3.541550129144771E1  -1.672881739638896E1   8.779238518348102E1  
 8.460000000000000E9    -1.993098482923562E1   1.188460404894576E2  -1.449070973847908  -4.906960981090077E1  -1.458979587689250  -4.848235460964767E1  -2.115054735294095E1   1.118627330545338E2  
 8.480000000000000E9    -1.857773932982086E1   1.543345025432572E2  -1.464535440522534  -6.211455020150451E1  -1.474495520238184  -6.152568185988555E1  -1.962117606509081E1   1.553019015484015E2  
 8.500000000000000E9    -1.487099246280888E1   1.653216666387032E2  -1.551354151750246  -7.498500467501610E1  -1.562010591513728  -7.439442600239661E1  -1.528606763840178E1   1.666350536520561E2  
 8.520000000000000E9    -1.201132397797103E1   1.632671090451923E2  -1.697395342336825  -8.756928546896801E1  -1.707972214405426  -8.696330973746989E1  -1.219515899870114E1   1.635508261732574E2  
 8.540000000000000E9    -9.966095570583290   1.567353503142973E2  -1.886668510808214  -9.978550543435304E1  -1.897373610878499  -9.917750738679128E1  -1.005688534030473E1   1.561587029517310E2  
 8.560000000000000E9    -8.482488795946875   1.484844792158401E2  -2.099566115371221  -1.115979017553628E2  -2.111929498541116  -1.109841659930917E2  -8.532103682640500   1.472421071828759E2  
 8.580000000000000E9    -7.380970058031514   1.395683710001540E2  -2.325485931955148  -1.230072465951154E2  -2.336444072534455  -1.223822463157023E2  -7.417963695383118   1.378352777600593E2  
 8.600000000000000E9    -6.548445613882160   1.304126218965584E2  -2.546961963473012  -1.340136524764589E2  -2.558488458111585  -1.333876896606683E2  -6.588705928898810   1.283174834352286E2  
 8.620000000000000E9    -5.914628532496542   1.211921441710811E2  -2.747756958214426  -1.446618392121493E2  -2.760039013356901  -1.440333567657137E2  -5.961213751901831   1.187819610168275E2  
 8.640000000000000E9    -5.435324106973518   1.120595918572277E2  -2.923243961337250  -1.550468400684994E2  -2.934881788520282  -1.544235553965860E2  -5.498305577045596   1.092776757434530E2  
 8.660000000000000E9    -5.076948830202222   1.030680143501292E2  -3.070886056938069  -1.651941709684587E2  -3.081618245839986  -1.645769604697468E2  -5.163892996817824   9.988153905161711E1  
 8.680000000000000E9    -4.817069509488730   9.417902230095301E1  -3.181462145424247  -1.751566363073730E2  -3.192858962413606  -1.745480209463745E2  -4.930960071475526   9.058880020394183E1  
 8.700000000000000E9    -4.649009757483615   8.536814532081718E1  -3.256397142355644   1.750076040259981E2  -3.267002074109895   1.756077199394251E2  -4.785092819324208   8.139199931538724E1  
 8.720000000000000E9    -4.564657845219326   7.660659156074138E1  -3.294550758612326   1.652526346310875E2  -3.306150844808324   1.658385301651703E2  -4.714053639790767   7.226200428888275E1  
 8.740000000000000E9    -4.550040961656064   6.787651122126206E1  -3.295259967851876   1.555295088091514E2  -3.305873637353906   1.561140955323865E2  -4.712169675903419   6.315401293764607E1  
 8.760000000000000E9    -4.603969181694474   5.914127313495485E1  -3.258728557074013   1.457985629145068E2  -3.270114511244588   1.463690340060875E2  -4.781064987182510   5.404577597666911E1  
 8.780000000000000E9    -4.732118728452068   5.039065965055960E1  -3.188431768605767   1.360128086767229E2  -3.198926432509720   1.365724876158949E2  -4.923055436790635   4.489950678968755E1  
 8.800000000000000E9    -4.949655835496426   4.162752305042659E1  -3.085594942158301   1.261336247782009E2  -3.097686506864952   1.266976372528603E2  -5.137009871494001   3.569628642872716E1  
 8.820000000000000E9    -5.263620707731072   3.294857286279918E1  -2.955784811438093   1.161480420023686E2  -2.968824392706161   1.167183225980599E2  -5.434929464262352   2.639212041841106E1  
 8.840000000000000E9    -5.655683674411047   2.420765511908274E1  -2.793102257700579   1.060016096170062E2  -2.804560639903604   1.065833059329027E2  -5.842040538802076   1.693544254450190E1  
 8.860000000000000E9    -6.182464225576105   1.526315579295330E1  -2.612638090082444   9.560509942256635E1  -2.624186387853928   9.617653203786895E1  -6.375666058811118   7.369014061561845  
 8.880000000000000E9    -6.887995296198401   6.183787638260648  -2.431940071507951   8.503811541611441E1  -2.443872631912917   8.560352065061049E1  -7.086759636388449  -2.408378774941803  
 8.900000000000000E9    -7.818268554132119  -2.355831547862250  -2.207148003968228   7.427562851548983E1  -2.219655331743006   7.485887634247418E1  -8.016240990439069  -1.168739014897501E1  
 8.920000000000000E9    -8.954182531137345  -1.073237333410973E1  -2.002069116035732   6.304760091453024E1  -2.013709338824928   6.363548295265605E1  -9.162531321489508  -2.105673533469053E1  
 8.940000000000000E9    -1.044190584638524E1  -1.842358624000631E1  -1.818686845788722   5.158211620020664E1  -1.831120973776557   5.217412142269298E1  -1.069276213590735E1  -3.003620020197076E1  
 8.960000000000000E9    -1.240920224300027E1  -2.446708814297976E1  -1.660233138971023   3.987546065747640E1  -1.673273815005210   4.047585555008152E1  -1.276837935775775E1  -3.782690557765102E1  
 8.980000000000000E9    -1.502188017942883E1  -2.666771244547794E1  -1.539509358920945   2.796541573031267E1  -1.552248037282535   2.857188359434988E1  -1.568115946920899E1  -4.251581106316046E1  
 9.000000000000000E9    -1.830183259247952E1  -1.933958283178620E1  -1.464666772764489   1.590919057945353E1  -1.476641268717161   1.650949749110822E1  -1.986163082411697E1  -3.762386864924961E1  
 9.020000000000000E9    -2.056676161940461E1   6.974520318473227  -1.443808427194454   3.784993383866990  -1.456230635972716   4.399895394278869  -2.370986764732661E1  -2.509240630560746  
 9.040000000000000E9    -1.849564682462783E1   3.463515301970075E1  -1.473988768237853  -8.177339787310284  -1.485927814068056  -7.563752302992056  -2.035602059889439E1   3.729765468799250E1  
 9.060000000000000E9    -1.533085910432546E1   4.202034043782602E1  -1.536245483154151  -2.013282841015414E1  -1.548619471220006  -1.951308079173303E1  -1.602677785104601E1   4.302339777062858E1  
 9.080000000000000E9    -1.280491957925132E1   4.014425380620230E1  -1.645908777396689  -3.187537507855134E1  -1.658952810943336  -3.125348017216641E1  -1.311939023348067E1   3.859068812689915E1  
 9.100000000000000E9    -1.089831043813766E1   3.424496346976012E1  -1.786140119610376  -4.338053919851479E1  -1.798842477815857  -4.275303237380278E1  -1.106309217705491E1   3.109761743105643E1  
 9.120000000000000E9    -9.465370010272908   2.660479492016356E1  -1.946188386172193  -5.460502248387239E1  -1.959172442110343  -5.397642555664329E1  -9.551411287666429   2.243211912938881E1  
 9.140000000000000E9    -8.372151414752237   1.818203604947709E1  -2.115875991904223  -6.554362721751723E1  -2.128098175923347  -6.492219090697498E1  -8.416777919587062   1.333013475262542E1  
 9.160000000000000E9    -7.528680912411437   9.359923364468815  -2.285823991378837  -7.621900362427111E1  -2.298829370722016  -7.557936893658452E1  -7.553808827916335   4.106512120972854  
 9.180000000000000E9    -6.873003594950031   3.744521124377068E-1  -2.447278768073637  -8.662428168375338E1  -2.459012162840635  -8.598329874056275E1  -6.891759690840529  -5.107042653096150  
 9.200000000000000E9    -6.376479103826770  -8.686245892631025  -2.595655896572935  -9.683619532807855E1  -2.607521895585296  -9.620252144524706E1  -6.386547703380773  -1.423895334928977E1  
 9.220000000000000E9    -5.968785809309281  -1.746246805396952E1  -2.718194118110966  -1.067430586449492E2  -2.732418973754190  -1.061074222982033E2  -5.998902276976382  -2.335556080781987E1  
 9.240000000000000E9    -5.676143548054141  -2.644607675451439E1  -2.815355051350081  -1.166043695212290E2  -2.829601636815227  -1.159484158947237E2  -5.718458388179811  -3.231850725312382E1  
 9.260000000000000E9    -5.473043982113772  -3.534419901891767E1  -2.888705945518321  -1.263356851077167E2  -2.902024936269592  -1.256671604616702E2  -5.527736016608558  -4.119827785097298E1  
 9.280000000000000E9    -5.351704224440149  -4.419702578328755E1  -2.933926521163767  -1.359763721851557E2  -2.945771652750996  -1.353089155681815E2  -5.412550173011438  -5.000863791649704E1  
 9.300000000000000E9    -5.304363287958043  -5.305444070136377E1  -2.948959281726066  -1.455666920241698E2  -2.962078830484090  -1.448957840179085E2  -5.369807903776865  -5.874652908647115E1  
 9.320000000000000E9    -5.325029829962404  -6.189900888559124E1  -2.935393107866610  -1.551427752385098E2  -2.948648488172839  -1.544635912550997E2  -5.398762798892778  -6.747403639480407E1  
 9.340000000000000E9    -5.420270259979883  -7.070397065875083E1  -2.893504447042142  -1.647354035251389E2  -2.906469050659042  -1.640467345396381E2  -5.499497191258710  -7.620729394739543E1  
 9.360000000000000E9    -5.590695048878596  -7.944126527921925E1  -2.821636004299422  -1.743756731559012E2  -2.834147801855020  -1.736826740452482E2  -5.677610255574395  -8.498910180750396E1  
 9.380000000000000E9    -5.843246318983378  -8.818250572320901E1  -2.720982475301737   1.758881325176742E2  -2.733594479161322   1.765747360554429E2  -5.940848233674531  -9.380724972161453E1  
 9.400000000000000E9    -6.201969290695801  -9.696925449862771E1  -2.598213155313067   1.660054430571384E2  -2.611972745655233   1.667021415183012E2  -6.303149877059872  -1.026548991007984E2  
 9.420000000000000E9    -6.679764798622997  -1.057730738650346E2  -2.457108072934146   1.559580089530186E2  -2.469441065037468   1.566699138450689E2  -6.781746272917421  -1.115320711249904E2  
 9.440000000000000E9    -7.302345170296566  -1.145825444453519E2  -2.301910860288818   1.457224601632759E2  -2.313264877948533   1.464414208329891E2  -7.400742005855274  -1.204008536293641E2  
 9.460000000000000E9    -8.099357768486591  -1.232916165293865E2  -2.138450032481789   1.352844961348731E2  -2.150497665184752   1.359946202240607E2  -8.201571922019447  -1.291943673820929E2  
 9.480000000000000E9    -9.122611550137750  -1.317296389778901E2  -1.975434474477480   1.246164322744507E2  -1.987927901868232   1.253200748170569E2  -9.239795065050407  -1.377543266689118E2  
 9.500000000000000E9    -1.044035159339320E1  -1.395478260736032E2  -1.819471645918938   1.137111846288670E2  -1.832028618294141   1.144204418265548E2  -1.058649507135422E1  -1.457601616606043E2  
 9.520000000000000E9    -1.217160148188693E1  -1.461397584966533E2  -1.683010982014526   1.025932446337738E2  -1.693904146513311   1.032891113977383E2  -1.235429759137221E1  -1.526257066691280E2  
 9.540000000000000E9    -1.446730625842979E1  -1.500288045034616E2  -1.571766818747048   9.127117028276732E1  -1.583231052664525   9.196339212014274E1  -1.472352092756905E1  -1.568594381737869E2  
 9.560000000000000E9    -1.748370835637120E1  -1.475506190940743E2  -1.495593634464545   7.980277660779328E1  -1.508199467587988   8.048900018694671E1  -1.789732511870935E1  -1.545684100509488E2  
 9.580000000000000E9    -2.060509978025644E1  -1.295255166347345E2  -1.459827105052506   6.825353370039572E1  -1.471594782340183   6.893996927415273E1  -2.130302571227045E1  -1.351104949869964E2  
 9.600000000000000E9    -2.042849129204094E1  -9.733604376354028E1  -1.467274953756351   5.668824972798097E1  -1.477641239833709   5.736334344327879E1  -2.092313758936319E1  -9.979629647494922E1  
 9.620000000000000E9    -1.724829674027128E1  -8.113087380737757E1  -1.516118483493119   4.517482561269073E1  -1.527176098153411   4.585513890127449E1  -1.742495036110013E1  -8.367570789900123E1  
 9.640000000000000E9    -1.433106858517951E1  -7.951736704686424E1  -1.605339803122243   3.380306472982989E1  -1.616156580994074   3.447256473910701E1  -1.438730027650745E1  -8.262557161376667E1  
 9.660000000000000E9    -1.213090355743043E1  -8.361609105247916E1  -1.725849754411637   2.264887312418706E1  -1.737262657226346   2.331761817055085E1  -1.213138482142018E1  -8.729428444466768E1  
 9.680000000000000E9    -1.044169698690065E1  -9.006658565367413E1  -1.860873390604958   1.171299760519672E1  -1.872031680398670   1.238604071232956E1  -1.046708348027731E1  -9.422606737300235E1  
 9.700000000000000E9    -9.137571524082182  -9.783596623893669E1  -2.010458353979945   9.637474016388830E-1  -2.021461493994366   1.650149431374605  -9.194921922962598  -1.020385329059854E2  
 9.720000000000000E9    -8.138675357819826  -1.062037598175497E2  -2.167902473220817  -9.541282476241616  -2.179396528928061  -8.850185392431023  -8.206464340537426  -1.103064903250299E2  
 9.740000000000000E9    -7.364688826237448  -1.148558659434779E2  -2.326819659244964  -1.981266210915972E1  -2.338811283275569  -1.911437419923254E1  -7.434266674772675  -1.187858092209410E2  
 9.760000000000000E9    -6.760480201196565  -1.235927821653780E2  -2.477577479676977  -2.985238458963393E1  -2.489664776671739  -2.914311075960611E1  -6.831461121146594  -1.273338341529757E2  
 9.780000000000000E9    -6.290609610425665  -1.323325686791426E2  -2.613460494362625  -3.968949205334597E1  -2.625138792759683  -3.896846271462640E1  -6.365023785125100  -1.358711934098268E2  
 9.800000000000000E9    -5.930560654500793  -1.410243887431996E2  -2.730721055198908  -4.935235384433491E1  -2.740798822287010  -4.867615574130222E1  -6.006585153935942  -1.443510477857654E2  
 9.820000000000000E9    -5.673212512184925  -1.496586155665230E2  -2.825788144664288  -5.888603845112689E1  -2.836975882636279  -5.815064091659510E1  -5.746564933914443  -1.528144868712783E2  
 9.840000000000000E9    -5.502677309790686  -1.581978075445306E2  -2.893057659884531  -6.828704900285034E1  -2.905036544102631  -6.755817783895505E1  -5.570667223666250  -1.612061651813270E2  
 9.860000000000000E9    -5.409780454998693  -1.667111243577415E2  -2.932932957305248  -7.762062534424359E1  -2.943987813880284  -7.689323097811639E1  -5.475119185679930  -1.695663926332764E2  
 9.880000000000000E9    -5.389856575673894  -1.752095365295949E2  -2.945624410867109  -8.691111638746817E1  -2.955514533060642  -8.619215964347058E1  -5.455027650562379  -1.779255406762130E2  
 9.900000000000000E9    -5.442084421915292   1.763330779085270E2  -2.926243958785450  -9.618836662583843E1  -2.936809094183035  -9.548646234406328E1  -5.509142390232508   1.737008040729808E2  
 9.920000000000000E9    -5.568490715589140   1.679542632601212E2  -2.878795744956206  -1.055047052489638E2  -2.889226961091570  -1.048084209814737E2  -5.641410836722797   1.652888000261541E2  
 9.940000000000000E9    -5.773170720057990   1.596044019399644E2  -2.803247306481141  -1.148804145395674E2  -2.814160108833655  -1.142026009827626E2  -5.858352273625314   1.568230070966962E2  
 9.960000000000000E9    -6.071230653832814   1.512704429920309E2  -2.701262804075122  -1.243645341222180E2  -2.711592825227723  -1.236990805279462E2  -6.173387155709586   1.482845170650762E2  
 9.980000000000000E9    -6.486723759086337   1.429600914771972E2  -2.576485999505637  -1.340002927024030E2  -2.587708783412141  -1.333429470356010E2  -6.612219750536200   1.397022405189057E2  
 1.000000000000000E10   -7.036427293953036   1.346835525201806E2  -2.432565708821691  -1.437866163136700E2  -2.443356584971149  -1.431474375226497E2  -7.191541017771746   1.311927663865001E2  
