#  HZ   S   DB   R     50.00 
! Rohde & Schwarz ZVA67 4Ports - Version 3.60 - 1305.7002k04 SN: 101051
! Date: 2012-04-10 10:07:09
! Measurement: S44 
! 
 8.000000000000000E9    -1.320894222090343E1   1.649974146506509E2  
 8.020000000000000E9    -1.292516806623893E1   1.600655934248449E2  
 8.040000000000000E9    -1.278226670498817E1   1.547406540128926E2  
 8.060000000000000E9    -1.274669436749724E1   1.511509825746309E2  
 8.080000000000000E9    -1.239700252318471E1   1.461689192180011E2  
 8.100000000000000E9    -1.246947559558143E1   1.409819712161302E2  
 8.120000000000000E9    -1.250947016512783E1   1.368919001088601E2  
 8.140000000000000E9    -1.231691726388098E1   1.322464805719725E2  
 8.160000000000000E9    -1.222790594898616E1   1.269938445806739E2  
 8.180000000000000E9    -1.218910603052662E1   1.231266355679159E2  
 8.200000000000000E9    -1.194787701109693E1   1.184250600338081E2  
 8.220000000000000E9    -1.188336598423922E1   1.131052001483747E2  
 8.240000000000000E9    -1.193973117366984E1   1.089057358412147E2  
 8.260000000000000E9    -1.182050438300033E1   1.046900345374429E2  
 8.280000000000000E9    -1.185690070626290E1   9.877162986349384E1  
 8.300000000000000E9    -1.191221437001691E1   9.493280760832485E1  
 8.320000000000000E9    -1.168563460189746E1   9.043271732417071E1  
 8.340000000000000E9    -1.166812916742812E1   8.494336897770259E1  
 8.360000000000000E9    -1.171025938896209E1   8.080884539116626E1  
 8.380000000000000E9    -1.155900443528167E1   7.660346424825410E1  
 8.400000000000000E9    -1.161279395244885E1   7.134430333542849E1  
 8.420000000000000E9    -1.162454637097465E1   6.731430853542226E1  
 8.440000000000000E9    -1.153903175364291E1   6.277572854132278E1  
 8.460000000000000E9    -1.153709460433521E1   5.702565175824677E1  
 8.480000000000000E9    -1.156267682565077E1   5.252828886708545E1  
 8.500000000000000E9    -1.140691873657709E1   4.765544043044051E1  
 8.520000000000000E9    -1.147382465200531E1   4.277808754631356E1  
 8.540000000000000E9    -1.154671063665207E1   3.877415567983213E1  
 8.560000000000000E9    -1.146750387740191E1   3.452127355285473E1  
 8.580000000000000E9    -1.146468494244541E1   2.944500738024938E1  
 8.600000000000000E9    -1.153737217843555E1   2.484856194040140E1  
 8.620000000000000E9    -1.147859583557579E1   2.000103149258477E1  
 8.640000000000000E9    -1.141455836842610E1   1.500356172557095E1  
 8.660000000000000E9    -1.139256857638004E1   9.978159966063403  
 8.680000000000000E9    -1.137972524818011E1   5.128042028716974  
 8.700000000000000E9    -1.133910924790727E1   7.248138255951255E-1  
 8.720000000000000E9    -1.138003532744411E1  -4.658255032610180  
 8.740000000000000E9    -1.147169244761545E1  -9.498447792164269  
 8.760000000000000E9    -1.144799082740251E1  -1.429246608868634E1  
 8.780000000000000E9    -1.147653707313757E1  -1.924049699846943E1  
 8.800000000000000E9    -1.151549483997103E1  -2.424599723481563E1  
 8.820000000000000E9    -1.148287187443497E1  -2.813199183870354E1  
 8.840000000000000E9    -1.137813663312015E1  -3.353771289799002E1  
 8.860000000000000E9    -1.145318356846559E1  -3.797343156863064E1  
 8.880000000000000E9    -1.143963057627724E1  -4.254011550694619E1  
 8.900000000000000E9    -1.142418910796285E1  -4.767627502083620E1  
 8.920000000000000E9    -1.150737817984687E1  -5.251714236447607E1  
 8.940000000000000E9    -1.148800563988805E1  -5.719631911680548E1  
 8.960000000000000E9    -1.141238596063695E1  -6.224553553758518E1  
 8.980000000000000E9    -1.145044844052150E1  -6.719618545794083E1  
 9.000000000000000E9    -1.148163916460033E1  -7.103737822459083E1  
 9.020000000000000E9    -1.144318459771229E1  -7.623884070024366E1  
 9.040000000000000E9    -1.152978378324619E1  -8.051985082861393E1  
 9.060000000000000E9    -1.149690033156355E1  -8.496867567879875E1  
 9.080000000000000E9    -1.145479823075557E1  -9.010878477489020E1  
 9.100000000000000E9    -1.146557933376874E1  -9.487662030445374E1  
 9.120000000000000E9    -1.140404609714025E1  -9.923677154541942E1  
 9.140000000000000E9    -1.137417595774718E1  -1.043824547749660E2  
 9.160000000000000E9    -1.137271181744578E1  -1.088286472817496E2  
 9.180000000000000E9    -1.144217290464956E1  -1.135374128773140E2  
 9.200000000000000E9    -1.137315135284757E1  -1.181808853063713E2  
 9.220000000000000E9    -1.149395773979882E1  -1.231874732841302E2  
 9.240000000000000E9    -1.147521234616779E1  -1.271997047049447E2  
 9.260000000000000E9    -1.142244600633125E1  -1.321054433101865E2  
 9.280000000000000E9    -1.145829408659029E1  -1.366366016770712E2  
 9.300000000000000E9    -1.142742598694464E1  -1.408611552324588E2  
 9.320000000000000E9    -1.142384379997564E1  -1.455500603337129E2  
 9.340000000000000E9    -1.150282582603433E1  -1.504393853755150E2  
 9.360000000000000E9    -1.161195392203712E1  -1.546838875558081E2  
 9.380000000000000E9    -1.147538246232569E1  -1.590559721750755E2  
 9.400000000000000E9    -1.160444448105768E1  -1.642522708239008E2  
 9.420000000000000E9    -1.149620763555706E1  -1.679530635351542E2  
 9.440000000000000E9    -1.151041302181803E1  -1.732395125852831E2  
 9.460000000000000E9    -1.162978833810845E1  -1.771707877820731E2  
 9.480000000000000E9    -1.159845763114404E1   1.783843710697444E2  
 9.500000000000000E9    -1.169419291248421E1   1.742143297135898E2  
 9.520000000000000E9    -1.173438715439988E1   1.696036237926300E2  
 9.540000000000000E9    -1.171726016379486E1   1.651483444312809E2  
 9.560000000000000E9    -1.171336663601446E1   1.605620103592678E2  
 9.580000000000000E9    -1.174921752304940E1   1.560804984462307E2  
 9.600000000000000E9    -1.173456673381275E1   1.521593108845337E2  
 9.620000000000000E9    -1.178073516377912E1   1.478578518157904E2  
 9.640000000000000E9    -1.191677236957469E1   1.439074983872651E2  
 9.660000000000000E9    -1.184750403637770E1   1.395990894640060E2  
 9.680000000000000E9    -1.193973075038712E1   1.345606138329084E2  
 9.700000000000000E9    -1.202373734680176E1   1.303376078224172E2  
 9.720000000000000E9    -1.197056811367483E1   1.256884454764027E2  
 9.740000000000000E9    -1.203069330415652E1   1.215919793860156E2  
 9.760000000000000E9    -1.205740145537301E1   1.176075957504742E2  
 9.780000000000000E9    -1.205888688542878E1   1.137312069855383E2  
 9.800000000000000E9    -1.207833239986428E1   1.091586698849474E2  
 9.820000000000000E9    -1.223311275536991E1   1.048340522077122E2  
 9.840000000000000E9    -1.222080554387451E1   1.005467408367513E2  
 9.860000000000000E9    -1.222911238825739E1   9.553744577839940E1  
 9.880000000000000E9    -1.231281811938742E1   9.141340984778421E1  
 9.900000000000000E9    -1.228164591909211E1   8.718707015425241E1  
 9.920000000000000E9    -1.231473148169268E1   8.313301858037283E1  
 9.940000000000000E9    -1.235190192054257E1   7.866182513137991E1  
 9.960000000000000E9    -1.244560984434479E1   7.482908144507691E1  
 9.980000000000000E9    -1.246492397990268E1   6.994148169460222E1  
 1.000000000000000E10   -1.256412936216054E1   6.471586180756648E1  
 1.002000000000000E10   -1.256770762795511E1   6.099841540898012E1  
 1.004000000000000E10   -1.253421977584460E1   5.609852692787528E1  
 1.006000000000000E10   -1.253753973150306E1   5.164303124419811E1  
 1.008000000000000E10   -1.256875909890697E1   4.761938001493794E1  
 1.010000000000000E10   -1.260088494897787E1   4.346032922855096E1  
 1.012000000000000E10   -1.268669812820563E1   3.864636681085693E1  
 1.014000000000000E10   -1.277806997208984E1   3.430515625295890E1  
 1.016000000000000E10   -1.276465540401910E1   2.959290792419530E1  
 1.018000000000000E10   -1.273408609710535E1   2.417928201952725E1  
 1.020000000000000E10   -1.279539195044464E1   1.977274515114619E1  
 1.022000000000000E10   -1.267046208025221E1   1.499564311153107E1  
 1.024000000000000E10   -1.267990979446701E1   1.020500530156408E1  
 1.026000000000000E10   -1.283931830291789E1   5.758188448787037  
 1.028000000000000E10   -1.293652844323620E1   1.496777307460888  
 1.030000000000000E10   -1.292515455671875E1  -3.724053799327377  
 1.032000000000000E10   -1.309290873059581E1  -8.401708971111599  
 1.034000000000000E10   -1.300538207945147E1  -1.310656628036648E1  
 1.036000000000000E10   -1.298967386204942E1  -1.789885404049130E1  
 1.038000000000000E10   -1.304053175374026E1  -2.212879387490501E1  
 1.040000000000000E10   -1.296795048141747E1  -2.639959064322326E1  
 1.042000000000000E10   -1.295325562369323E1  -3.071576370840084E1  
 1.044000000000000E10   -1.302928097349631E1  -3.530518131549000E1  
 1.046000000000000E10   -1.303858751056276E1  -4.011112528401625E1  
 1.048000000000000E10   -1.298979781700054E1  -4.538164272207712E1  
 1.050000000000000E10   -1.305484057353418E1  -5.115834708165053E1  
 1.052000000000000E10   -1.312969526930697E1  -5.537953065557500E1  
 1.054000000000000E10   -1.306954189063686E1  -5.921001798330468E1  
 1.056000000000000E10   -1.300681030772661E1  -6.386054326621340E1  
 1.058000000000000E10   -1.309636458598438E1  -6.787501698307813E1  
 1.060000000000000E10   -1.299748854330958E1  -7.197253215291515E1  
 1.062000000000000E10   -1.303817545968520E1  -7.774022591577923E1  
 1.064000000000000E10   -1.312497425417085E1  -8.215056370330288E1  
 1.066000000000000E10   -1.296167917779713E1  -8.675755401267162E1  
 1.068000000000000E10   -1.291664587605875E1  -9.189996101898207E1  
 1.070000000000000E10   -1.290033443362983E1  -9.581675370013168E1  
 1.072000000000000E10   -1.283549529364835E1  -1.003759486728910E2  
 1.074000000000000E10   -1.289218158427696E1  -1.047229840494580E2  
 1.076000000000000E10   -1.295649451363007E1  -1.087121717113488E2  
 1.078000000000000E10   -1.296257058271915E1  -1.129580162747253E2  
 1.080000000000000E10   -1.292893943266144E1  -1.171490212207086E2  
 1.082000000000000E10   -1.285630498468046E1  -1.214999301828941E2  
 1.084000000000000E10   -1.277211458104479E1  -1.255035046601098E2  
 1.086000000000000E10   -1.265964307689371E1  -1.298661508034021E2  
 1.088000000000000E10   -1.272205966590123E1  -1.340074168298370E2  
 1.090000000000000E10   -1.270601458219033E1  -1.376134043460257E2  
 1.092000000000000E10   -1.264059802758808E1  -1.421448924001958E2  
 1.094000000000000E10   -1.269954331907819E1  -1.465635746182942E2  
 1.096000000000000E10   -1.263761648947958E1  -1.505815958992426E2  
 1.098000000000000E10   -1.259152673727348E1  -1.550338925432982E2  
 1.100000000000000E10   -1.257864545069277E1  -1.590640014256125E2  
 1.102000000000000E10   -1.255854411580370E1  -1.625643511637427E2  
 1.104000000000000E10   -1.254625843310872E1  -1.659682117325685E2  
 1.106000000000000E10   -1.248539132931326E1  -1.701736233909639E2  
 1.108000000000000E10   -1.250885095692157E1  -1.739574489765500E2  
 1.110000000000000E10   -1.244688427202015E1  -1.783215644433308E2  
 1.112000000000000E10   -1.244144330057679E1   1.771476975428284E2  
 1.114000000000000E10   -1.243240012121584E1   1.732207445522768E2  
 1.116000000000000E10   -1.242059181491779E1   1.694691190036326E2  
 1.118000000000000E10   -1.240422298415305E1   1.656990795875443E2  
 1.120000000000000E10   -1.238346519067504E1   1.621027235950740E2  
 1.122000000000000E10   -1.246565942963428E1   1.583925644734601E2  
 1.124000000000000E10   -1.246823353782018E1   1.543157756081102E2  
 1.126000000000000E10   -1.258533082710995E1   1.502573586966103E2  
 1.128000000000000E10   -1.256605195579085E1   1.469976939797158E2  
 1.130000000000000E10   -1.251372173799885E1   1.431848461616634E2  
 1.132000000000000E10   -1.251368875249859E1   1.392440500586648E2  
 1.134000000000000E10   -1.258395143520392E1   1.357509370024429E2  
 1.136000000000000E10   -1.251391253982447E1   1.323328753426492E2  
 1.138000000000000E10   -1.261527297447900E1   1.279669529388429E2  
 1.140000000000000E10   -1.269335399453873E1   1.246574756834274E2  
 1.142000000000000E10   -1.269665070531933E1   1.205221056328023E2  
 1.144000000000000E10   -1.274916676827102E1   1.163848912503624E2  
 1.146000000000000E10   -1.281879523317607E1   1.126479073807950E2  
 1.148000000000000E10   -1.282229360818545E1   1.093301798504758E2  
 1.150000000000000E10   -1.289233558070505E1   1.053579671041180E2  
 1.152000000000000E10   -1.304417645063339E1   1.016334347965354E2  
 1.154000000000000E10   -1.303613350433418E1   9.852223343643847E1  
 1.156000000000000E10   -1.306502547212171E1   9.377020133155834E1  
 1.158000000000000E10   -1.318167299796134E1   8.991631755754665E1  
 1.160000000000000E10   -1.321439276592899E1   8.596270033033675E1  
 1.162000000000000E10   -1.326968391667786E1   8.158327733683571E1  
 1.164000000000000E10   -1.338563058574330E1   7.797830991396421E1  
 1.166000000000000E10   -1.339762166881221E1   7.434190154165212E1  
 1.168000000000000E10   -1.356752732115784E1   7.021957200200994E1  
 1.170000000000000E10   -1.372095817208937E1   6.631185052643754E1  
 1.172000000000000E10   -1.379722867471689E1   6.222784742915594E1  
 1.174000000000000E10   -1.390775193808349E1   5.811621613576549E1  
 1.176000000000000E10   -1.399993614163911E1   5.401789042872879E1  
 1.178000000000000E10   -1.399830657171047E1   5.059490760235603E1  
 1.180000000000000E10   -1.406359221103144E1   4.596824156988498E1  
 1.182000000000000E10   -1.420553102261757E1   4.182965233324786E1  
 1.184000000000000E10   -1.435088398539424E1   3.735469310351839E1  
 1.186000000000000E10   -1.451231475669646E1   3.273847628839936E1  
 1.188000000000000E10   -1.464556865329426E1   2.800267003609493E1  
 1.190000000000000E10   -1.481544425065146E1   2.337441325076526E1  
 1.192000000000000E10   -1.479575623444977E1   1.978856543979602E1  
 1.194000000000000E10   -1.483050115536221E1   1.514010425090214E1  
 1.196000000000000E10   -1.495251717993713E1   1.079200315220601E1  
 1.198000000000000E10   -1.510627119823279E1   6.896380911130266  
 1.200000000000000E10   -1.509587771115720E1   2.042386745214846  
