#  HZ   S   DB   R     50.00 
! Rohde & Schwarz ZVA67 4Ports - Version 3.60 - 1305.7002k04 SN: 101051
! Date: 2012-04-10 10:09:10
! Measurement: S11 
! 
 8.000000000000000E9    -2.476464337652649E1   6.888208924626817E1  
 8.020000000000000E9    -2.522857172894249E1   6.765223784987137E1  
 8.040000000000000E9    -2.559506139644930E1   6.778353727382203E1  
 8.060000000000000E9    -2.580890837415793E1   6.653767671333596E1  
 8.080000000000000E9    -2.614449816346574E1   6.550752106595748E1  
 8.100000000000000E9    -2.638920534385911E1   6.629386528874372E1  
 8.120000000000000E9    -2.652348401782905E1   6.485621827450601E1  
 8.140000000000000E9    -2.677930254349697E1   6.385738998743049E1  
 8.160000000000000E9    -2.701344626621964E1   6.403654690733350E1  
 8.180000000000000E9    -2.712322176180373E1   6.222051676153266E1  
 8.200000000000000E9    -2.735618496850167E1   6.080745854736028E1  
 8.220000000000000E9    -2.752333010075578E1   6.061165242155090E1  
 8.240000000000000E9    -2.750575526530106E1   5.865345563698639E1  
 8.260000000000000E9    -2.766977209390117E1   5.712961440464193E1  
 8.280000000000000E9    -2.762768221793852E1   5.679018749013952E1  
 8.300000000000000E9    -2.763723424759002E1   5.540416172814537E1  
 8.320000000000000E9    -2.780713423592192E1   5.320704242715111E1  
 8.340000000000000E9    -2.783043534563733E1   5.258237368487664E1  
 8.360000000000000E9    -2.772363500551354E1   4.977896367954397E1  
 8.380000000000000E9    -2.787585862396716E1   4.716586306603708E1  
 8.400000000000000E9    -2.788670939496604E1   4.555518232118788E1  
 8.420000000000000E9    -2.774832204231658E1   4.204845686000681E1  
 8.440000000000000E9    -2.783919697766352E1   3.963873048912269E1  
 8.460000000000000E9    -2.771584696701384E1   3.690918279282800E1  
 8.480000000000000E9    -2.768002455003863E1   3.385651813523549E1  
 8.500000000000000E9    -2.765960202548454E1   3.095743754918160E1  
 8.520000000000000E9    -2.773376766185794E1   2.781187968185920E1  
 8.540000000000000E9    -2.756766598284832E1   2.476343629888752E1  
 8.560000000000000E9    -2.753639812592141E1   2.026783818816193E1  
 8.580000000000000E9    -2.771430859276594E1   1.724501207081915E1  
 8.600000000000000E9    -2.758665793354976E1   1.418804494594061E1  
 8.620000000000000E9    -2.766121699695699E1   9.430183102986419  
 8.640000000000000E9    -2.800934263483800E1   6.336675562215183  
 8.660000000000000E9    -2.792853085210155E1   2.611365274368407  
 8.680000000000000E9    -2.803314034252103E1  -3.152428830298167  
 8.700000000000000E9    -2.843692143776245E1  -6.379607847388342  
 8.720000000000000E9    -2.826031382490114E1  -1.018020681546412E1  
 8.740000000000000E9    -2.845309291117411E1  -1.596421411345248E1  
 8.760000000000000E9    -2.884872443065762E1  -1.872699340196721E1  
 8.780000000000000E9    -2.881619592018486E1  -2.252885558394645E1  
 8.800000000000000E9    -2.905736115838657E1  -2.757262450462001E1  
 8.820000000000000E9    -2.950356568595514E1  -3.162700121353804E1  
 8.840000000000000E9    -2.954521601868648E1  -3.529328702711464E1  
 8.860000000000000E9    -2.975850143901295E1  -4.078548967696574E1  
 8.880000000000000E9    -3.022206127767613E1  -4.511449834184973E1  
 8.900000000000000E9    -3.010382268454946E1  -4.788471731262228E1  
 8.920000000000000E9    -3.028053225678801E1  -5.390360325751975E1  
 8.940000000000000E9    -3.061192689794720E1  -5.589097052026495E1  
 8.960000000000000E9    -3.059532440450036E1  -5.880124260276433E1  
 8.980000000000000E9    -3.084083135811324E1  -6.409853026452902E1  
 9.000000000000000E9    -3.125318048646960E1  -6.639925324751690E1  
 9.020000000000000E9    -3.100849904019617E1  -6.889308703176423E1  
 9.040000000000000E9    -3.134556856149715E1  -7.308340746295160E1  
 9.060000000000000E9    -3.152954038880731E1  -7.558787260436129E1  
 9.080000000000000E9    -3.159113566188263E1  -7.770295607096188E1  
 9.100000000000000E9    -3.171720255576264E1  -8.139980945357654E1  
 9.120000000000000E9    -3.208328230163095E1  -8.585842935765700E1  
 9.140000000000000E9    -3.212648617165268E1  -8.760734159000515E1  
 9.160000000000000E9    -3.217287657223080E1  -9.193372485624981E1  
 9.180000000000000E9    -3.227030878596836E1  -9.594203604005188E1  
 9.200000000000000E9    -3.237947141205252E1  -9.815951839197136E1  
 9.220000000000000E9    -3.215991526348053E1  -1.013141111220327E2  
 9.240000000000000E9    -3.239635078187511E1  -1.052687421776388E2  
 9.260000000000000E9    -3.255105594070067E1  -1.058416427662929E2  
 9.280000000000000E9    -3.242252087750460E1  -1.103165407362817E2  
 9.300000000000000E9    -3.268639408773855E1  -1.132140788616085E2  
 9.320000000000000E9    -3.272359749264661E1  -1.155722991716337E2  
 9.340000000000000E9    -3.255748950554692E1  -1.194617534177082E2  
 9.360000000000000E9    -3.265655546316532E1  -1.228149413284115E2  
 9.380000000000000E9    -3.260854838436242E1  -1.246045973882005E2  
 9.400000000000000E9    -3.228817538721266E1  -1.254222151226583E2  
 9.420000000000000E9    -3.222524494667825E1  -1.286604633398353E2  
 9.440000000000000E9    -3.226614715120309E1  -1.304731069681257E2  
 9.460000000000000E9    -3.189993744998973E1  -1.323950216187675E2  
 9.480000000000000E9    -3.191688578985012E1  -1.361949772987770E2  
 9.500000000000000E9    -3.168668368745938E1  -1.379612159995667E2  
 9.520000000000000E9    -3.137747357051746E1  -1.409235123219597E2  
 9.540000000000000E9    -3.115011365146968E1  -1.436559118913888E2  
 9.560000000000000E9    -3.106198977373354E1  -1.466146027896076E2  
 9.580000000000000E9    -3.080497366052084E1  -1.492815853914543E2  
 9.600000000000000E9    -3.059058934562757E1  -1.525023262516000E2  
 9.620000000000000E9    -3.047533186884665E1  -1.560438899914670E2  
 9.640000000000000E9    -3.022249640934889E1  -1.595130245137507E2  
 9.660000000000000E9    -2.978443633666815E1  -1.632867883510309E2  
 9.680000000000000E9    -2.969027080727322E1  -1.673656026047771E2  
 9.700000000000000E9    -2.934287621497115E1  -1.695424416767236E2  
 9.720000000000000E9    -2.906499288683762E1  -1.745926536544855E2  
 9.740000000000000E9    -2.903706857266068E1  -1.781285231592205E2  
 9.760000000000000E9    -2.891751089937687E1   1.784314195834756E2  
 9.780000000000000E9    -2.865813656279529E1   1.732111027500435E2  
 9.800000000000000E9    -2.866319309232974E1   1.683482672865490E2  
 9.820000000000000E9    -2.841170170589196E1   1.650011022257458E2  
 9.840000000000000E9    -2.817315061511141E1   1.601776868280835E2  
 9.860000000000000E9    -2.818159118828101E1   1.560520979960028E2  
 9.880000000000000E9    -2.803569038739399E1   1.520666295180417E2  
 9.900000000000000E9    -2.791851141943509E1   1.481902224808097E2  
 9.920000000000000E9    -2.790855013396123E1   1.430754258845967E2  
 9.940000000000000E9    -2.801030855424028E1   1.397406892436597E2  
 9.960000000000000E9    -2.792491151760507E1   1.346691439755026E2  
 9.980000000000000E9    -2.793817367608304E1   1.299631659831819E2  
 1.000000000000000E10   -2.802577050226919E1   1.251072477697387E2  
 1.002000000000000E10   -2.795089366470988E1   1.211690183422555E2  
 1.004000000000000E10   -2.793522899471069E1   1.159075457873796E2  
 1.006000000000000E10   -2.814163372209522E1   1.121167914519893E2  
 1.008000000000000E10   -2.807235215919963E1   1.076322344587915E2  
 1.010000000000000E10   -2.831106638889682E1   1.019175475028852E2  
 1.012000000000000E10   -2.843161055271997E1   9.826220647531608E1  
 1.014000000000000E10   -2.838248717894660E1   9.306371182748306E1  
 1.016000000000000E10   -2.852310029502959E1   8.725104313197005E1  
 1.018000000000000E10   -2.857754961279315E1   8.277380219777174E1  
 1.020000000000000E10   -2.870271787044688E1   7.792863687942479E1  
 1.022000000000000E10   -2.881355426185719E1   7.266918407702099E1  
 1.024000000000000E10   -2.897136718277721E1   6.708162360917655E1  
 1.026000000000000E10   -2.909930202750090E1   6.160446799081862E1  
 1.028000000000000E10   -2.915165042995762E1   5.584804704478664E1  
 1.030000000000000E10   -2.937747401207087E1   4.913091581929003E1  
 1.032000000000000E10   -2.946142542397027E1   4.430829442460051E1  
 1.034000000000000E10   -2.950514517104280E1   3.764010270096461E1  
 1.036000000000000E10   -2.963175647454629E1   3.137932316537569E1  
 1.038000000000000E10   -2.972035503337395E1   2.563875659550046E1  
 1.040000000000000E10   -2.984512256282612E1   1.846551731992019E1  
 1.042000000000000E10   -2.990989237233114E1   1.163335554563342E1  
 1.044000000000000E10   -2.986269072252784E1   4.362037052691207  
 1.046000000000000E10   -2.986982391723363E1  -2.301191556906430  
 1.048000000000000E10   -2.988858386586506E1  -9.256115318110053  
 1.050000000000000E10   -2.989766310791250E1  -1.664251786405580E1  
 1.052000000000000E10   -2.990770874182963E1  -2.285480377565571E1  
 1.054000000000000E10   -2.980647449795848E1  -3.041229976611896E1  
 1.056000000000000E10   -2.980726755883960E1  -3.838068171720760E1  
 1.058000000000000E10   -2.969664908557322E1  -4.472889244664845E1  
 1.060000000000000E10   -2.943055815000688E1  -5.230037499512801E1  
 1.062000000000000E10   -2.930073663449083E1  -5.931642088557373E1  
 1.064000000000000E10   -2.911389368339641E1  -6.549136667153663E1  
 1.066000000000000E10   -2.881644729060755E1  -7.196983431806892E1  
 1.068000000000000E10   -2.860215742590536E1  -7.887212687623214E1  
 1.070000000000000E10   -2.854788069963851E1  -8.460862909181414E1  
 1.072000000000000E10   -2.812990395844025E1  -9.063473054936767E1  
 1.074000000000000E10   -2.796425167947769E1  -9.680154936443589E1  
 1.076000000000000E10   -2.776644978307751E1  -1.016995762258261E2  
 1.078000000000000E10   -2.742572088203613E1  -1.073961535985823E2  
 1.080000000000000E10   -2.724551340920447E1  -1.125325845137314E2  
 1.082000000000000E10   -2.707773968244477E1  -1.168785826752390E2  
 1.084000000000000E10   -2.687976105511837E1  -1.219591202141811E2  
 1.086000000000000E10   -2.670985123242161E1  -1.271469259708563E2  
 1.088000000000000E10   -2.659627828286798E1  -1.312356281317798E2  
 1.090000000000000E10   -2.629069351358685E1  -1.356599960842947E2  
 1.092000000000000E10   -2.613633754741876E1  -1.406257316492836E2  
 1.094000000000000E10   -2.594392990385665E1  -1.440059638952261E2  
 1.096000000000000E10   -2.571293887668587E1  -1.480824939071787E2  
 1.098000000000000E10   -2.563499319267067E1  -1.521269245163117E2  
 1.100000000000000E10   -2.543404843289953E1  -1.557307039814979E2  
 1.102000000000000E10   -2.531775614459956E1  -1.597692424234336E2  
 1.104000000000000E10   -2.523343566542685E1  -1.632356691900904E2  
 1.106000000000000E10   -2.504432116513219E1  -1.673241754780065E2  
 1.108000000000000E10   -2.500701857738119E1  -1.708654967773224E2  
 1.110000000000000E10   -2.481322274867843E1  -1.736720765033292E2  
 1.112000000000000E10   -2.469571879291838E1  -1.777203082449897E2  
 1.114000000000000E10   -2.473074231016961E1   1.794779498916995E2  
 1.116000000000000E10   -2.456172328032967E1   1.761217596687761E2  
 1.118000000000000E10   -2.448696761838516E1   1.723357129463814E2  
 1.120000000000000E10   -2.447213948718705E1   1.695760817110167E2  
 1.122000000000000E10   -2.432232154023758E1   1.663219440778472E2  
 1.124000000000000E10   -2.427170626505647E1   1.629866108433190E2  
 1.126000000000000E10   -2.429934333211055E1   1.606790051556727E2  
 1.128000000000000E10   -2.416668909471083E1   1.576250075012150E2  
 1.130000000000000E10   -2.417862040394530E1   1.548515140929338E2  
 1.132000000000000E10   -2.425134796970744E1   1.523826891781015E2  
 1.134000000000000E10   -2.425652447660838E1   1.495880227590571E2  
 1.136000000000000E10   -2.429137166407141E1   1.464440567836025E2  
 1.138000000000000E10   -2.429465016890801E1   1.438228271371173E2  
 1.140000000000000E10   -2.428572041323672E1   1.413483672525647E2  
 1.142000000000000E10   -2.426369518141004E1   1.389370185090884E2  
 1.144000000000000E10   -2.436984416017340E1   1.368415017306399E2  
 1.146000000000000E10   -2.438816992025141E1   1.345319402554196E2  
 1.148000000000000E10   -2.449843801530871E1   1.322023235404980E2  
 1.150000000000000E10   -2.457203467960988E1   1.295804690660199E2  
 1.152000000000000E10   -2.456486396209974E1   1.271962546121822E2  
 1.154000000000000E10   -2.463479739712392E1   1.248840756542508E2  
 1.156000000000000E10   -2.468812667331485E1   1.226459318029640E2  
 1.158000000000000E10   -2.471135458300547E1   1.203651654917139E2  
 1.160000000000000E10   -2.472694348749204E1   1.186282142230676E2  
 1.162000000000000E10   -2.480679788030804E1   1.164929640720553E2  
 1.164000000000000E10   -2.491988127851104E1   1.146929255214624E2  
 1.166000000000000E10   -2.495552051555930E1   1.126035797979026E2  
 1.168000000000000E10   -2.497730937268088E1   1.103442347237659E2  
 1.170000000000000E10   -2.509399129034309E1   1.080071529048649E2  
 1.172000000000000E10   -2.508540504851974E1   1.057308102322111E2  
 1.174000000000000E10   -2.515021727164628E1   1.033758665068739E2  
 1.176000000000000E10   -2.521653403954345E1   1.018006130587275E2  
 1.178000000000000E10   -2.533378207490463E1   9.952133755415069E1  
 1.180000000000000E10   -2.546916422199686E1   9.694098462613998E1  
 1.182000000000000E10   -2.562608393079128E1   9.471339097531119E1  
 1.184000000000000E10   -2.573873263825867E1   9.207306725154169E1  
 1.186000000000000E10   -2.584495570269912E1   8.893795165782409E1  
 1.188000000000000E10   -2.599014446305258E1   8.626960541062340E1  
 1.190000000000000E10   -2.604599216107945E1   8.387266295779243E1  
 1.192000000000000E10   -2.617225569416426E1   8.138432399571155E1  
 1.194000000000000E10   -2.637578235136428E1   7.897374289927372E1  
 1.196000000000000E10   -2.657858529703561E1   7.627053511875725E1  
 1.198000000000000E10   -2.691959088737510E1   7.320352960141773E1  
 1.200000000000000E10   -2.715007794740817E1   7.020739102631855E1  
