#  HZ   S   DB   R     50.00 
! Rohde & Schwarz ZVA67 4Ports - Version 3.60 - 1305.7002k04 SN: 101051
! Date: 2012-04-10 10:30:41
! Measurement: S11 
! 
 8.000000000000000E9    -2.388700730474591E1  -1.197105637564867E2  
 8.020000000000000E9    -2.383098653704160E1  -1.163497356395219E2  
 8.040000000000000E9    -2.400260237304774E1  -1.122473272928381E2  
 8.060000000000000E9    -2.404878692895803E1  -1.085066848538170E2  
 8.080000000000000E9    -2.394567192631053E1  -1.057824318788204E2  
 8.100000000000000E9    -2.389514947915473E1  -1.026252517638085E2  
 8.120000000000000E9    -2.384369762061431E1  -9.895353304113421E1  
 8.140000000000000E9    -2.373826571610587E1  -9.567570728601010E1  
 8.160000000000000E9    -2.370914542260396E1  -9.176163251993104E1  
 8.180000000000000E9    -2.367841210356662E1  -8.830804806472985E1  
 8.200000000000000E9    -2.385662462236295E1  -8.605214691468473E1  
 8.220000000000000E9    -2.379284325007874E1  -8.315220600202913E1  
 8.240000000000000E9    -2.373857669874208E1  -8.040421862593935E1  
 8.260000000000000E9    -2.374640471482447E1  -7.772411569481049E1  
 8.280000000000000E9    -2.369849248489384E1  -7.577823260397122E1  
 8.300000000000000E9    -2.366717356302999E1  -7.234821612670660E1  
 8.320000000000000E9    -2.359038693309554E1  -7.020664600534981E1  
 8.340000000000000E9    -2.360424673051150E1  -6.775932733834462E1  
 8.360000000000000E9    -2.374281094835242E1  -6.553409247111291E1  
 8.380000000000000E9    -2.376906002677568E1  -6.316755995938594E1  
 8.400000000000000E9    -2.366285599125817E1  -6.141248165309332E1  
 8.420000000000000E9    -2.370446756134482E1  -5.979614752489295E1  
 8.440000000000000E9    -2.373527827014351E1  -5.764556810493365E1  
 8.460000000000000E9    -2.363352069465474E1  -5.515364262469205E1  
 8.480000000000000E9    -2.367147304269077E1  -5.299782890752637E1  
 8.500000000000000E9    -2.384051983809679E1  -5.089088186865134E1  
 8.520000000000000E9    -2.393137056892421E1  -4.874538614551577E1  
 8.540000000000000E9    -2.404748463772596E1  -4.758445853420270E1  
 8.560000000000000E9    -2.419820870664086E1  -4.579724406555015E1  
 8.580000000000000E9    -2.423307742573956E1  -4.431649909176595E1  
 8.600000000000000E9    -2.434225997439551E1  -4.251747872208016E1  
 8.620000000000000E9    -2.450274112734366E1  -4.012577582286611E1  
 8.640000000000000E9    -2.468979148828306E1  -3.787451884781916E1  
 8.660000000000000E9    -2.498309399475283E1  -3.693034508299833E1  
 8.680000000000000E9    -2.549832673368703E1  -3.437577299396869E1  
 8.700000000000000E9    -2.558240227308544E1  -3.292201837126882E1  
 8.720000000000000E9    -2.586519334046206E1  -3.229839445933866E1  
 8.740000000000000E9    -2.605996785699840E1  -3.011817591975854E1  
 8.760000000000000E9    -2.610620375604484E1  -2.774800232895387E1  
 8.780000000000000E9    -2.628243446984315E1  -2.525835610199494E1  
 8.800000000000000E9    -2.663755228330679E1  -2.231030038786316E1  
 8.820000000000000E9    -2.693731098912378E1  -1.877025452583075E1  
 8.840000000000000E9    -2.740231629215617E1  -1.634762296444269E1  
 8.860000000000000E9    -2.782355047465060E1  -1.344461030807390E1  
 8.880000000000000E9    -2.801611550186170E1  -1.046283376949293E1  
 8.900000000000000E9    -2.836897686498157E1  -8.743510489846885  
 8.920000000000000E9    -2.866252238207668E1  -4.633086631454137  
 8.940000000000000E9    -2.873459265542432E1  -8.188772354469477E-1  
 8.960000000000000E9    -2.916348907532888E1   1.541195148629656  
 8.980000000000000E9    -2.962670177609932E1   6.645581710473242  
 9.000000000000000E9    -2.992806592515460E1   9.103790333655246  
 9.020000000000000E9    -3.030669447977719E1   1.059316631151439E1  
 9.040000000000000E9    -3.062394304059488E1   1.334336866584795E1  
 9.060000000000000E9    -3.074743646818951E1   1.681193839517356E1  
 9.080000000000000E9    -3.090480417880610E1   1.735665998292765E1  
 9.100000000000000E9    -3.095980136691357E1   2.226569180854976E1  
 9.120000000000000E9    -3.125301185120874E1   2.711117490757236E1  
 9.140000000000000E9    -3.163575952256427E1   3.009537952818453E1  
 9.160000000000000E9    -3.253888825131057E1   3.380942798385476E1  
 9.180000000000000E9    -3.268056353765528E1   3.790046115607341E1  
 9.200000000000000E9    -3.307823344643167E1   3.781441928036608E1  
 9.220000000000000E9    -3.388861696885476E1   4.048568887139888E1  
 9.240000000000000E9    -3.369152682360409E1   4.344060454539316E1  
 9.260000000000000E9    -3.372479497817195E1   4.429292240406959E1  
 9.280000000000000E9    -3.433295241590950E1   5.023652356319391E1  
 9.300000000000000E9    -3.461995710201829E1   5.461428888386327E1  
 9.320000000000000E9    -3.533791955125030E1   5.709828874053848E1  
 9.340000000000000E9    -3.622176596947718E1   6.322121400072843E1  
 9.360000000000000E9    -3.677438922660476E1   6.173440396356998E1  
 9.380000000000000E9    -3.707067811357455E1   5.993647115518797E1  
 9.400000000000000E9    -3.777803369222058E1   6.147631303428894E1  
 9.420000000000000E9    -3.739029659432553E1   6.282501528916269E1  
 9.440000000000000E9    -3.778174861006889E1   6.609763628039600E1  
 9.460000000000000E9    -3.860970080603006E1   6.810853536941808E1  
 9.480000000000000E9    -3.956148534438397E1   7.160189088929612E1  
 9.500000000000000E9    -4.078850067681132E1   7.360775284206956E1  
 9.520000000000000E9    -4.170491054666842E1   6.207107957772585E1  
 9.540000000000000E9    -4.418249532358166E1   5.245390607141534E1  
 9.560000000000000E9    -4.391703900469812E1   5.231661878441075E1  
 9.580000000000000E9    -4.286724589414976E1   4.085270244032162E1  
 9.600000000000000E9    -4.446255221662813E1   3.049927371931870E1  
 9.620000000000000E9    -4.616358902599211E1   3.494693218051962E1  
 9.640000000000000E9    -4.596250551924412E1   9.652372118294059  
 9.660000000000000E9    -4.649043682704057E1  -1.833622265541373E1  
 9.680000000000000E9    -4.483017295844877E1  -2.043534119330321E1  
 9.700000000000000E9    -4.129154412551952E1  -3.057562746801541E1  
 9.720000000000000E9    -4.045885393918317E1  -4.324257645239353E1  
 9.740000000000000E9    -4.008451025904868E1  -3.769815003690396E1  
 9.760000000000000E9    -3.865245537750253E1  -4.084391876756377E1  
 9.780000000000000E9    -3.755506852148010E1  -5.024449142293046E1  
 9.800000000000000E9    -3.666925333740556E1  -5.338626226050302E1  
 9.820000000000000E9    -3.576534363323014E1  -5.679503243304370E1  
 9.840000000000000E9    -3.433952906979755E1  -5.572103347662954E1  
 9.860000000000000E9    -3.314666151228254E1  -5.616209914824110E1  
 9.880000000000000E9    -3.293401731902164E1  -5.552592215158357E1  
 9.900000000000000E9    -3.248286143751442E1  -5.440373563949845E1  
 9.920000000000000E9    -3.209102611846770E1  -5.700727302362068E1  
 9.940000000000000E9    -3.184085710176793E1  -5.834739897233040E1  
 9.960000000000000E9    -3.118133639168471E1  -6.099120744205806E1  
 9.980000000000000E9    -3.059921099593566E1  -6.055650671008688E1  
 1.000000000000000E10   -2.985432502941664E1  -6.094396083704568E1  
 1.002000000000000E10   -2.937744006193590E1  -6.011886666359378E1  
 1.004000000000000E10   -2.904346776169452E1  -6.008766242023425E1  
 1.006000000000000E10   -2.902034445068544E1  -5.936450120196486E1  
 1.008000000000000E10   -2.863011646651798E1  -5.921892334680501E1  
 1.010000000000000E10   -2.841401701285278E1  -6.034817270015473E1  
 1.012000000000000E10   -2.814717545657017E1  -6.153853849771198E1  
 1.014000000000000E10   -2.769192578876051E1  -6.086258856375553E1  
 1.016000000000000E10   -2.717862032643352E1  -5.986927974627314E1  
 1.018000000000000E10   -2.692387721282316E1  -5.998005924894729E1  
 1.020000000000000E10   -2.677588096361670E1  -5.886224420665258E1  
 1.022000000000000E10   -2.666411795607942E1  -5.807185483580238E1  
 1.024000000000000E10   -2.651800631966321E1  -5.849921339514697E1  
 1.026000000000000E10   -2.635020371760421E1  -5.927917212350620E1  
 1.028000000000000E10   -2.600101778035564E1  -5.961188843629191E1  
 1.030000000000000E10   -2.581015833131195E1  -5.885841908948313E1  
 1.032000000000000E10   -2.549094826520600E1  -5.847812723232733E1  
 1.034000000000000E10   -2.525844372420659E1  -5.759947621635664E1  
 1.036000000000000E10   -2.521167205926473E1  -5.738066310967209E1  
 1.038000000000000E10   -2.528728960814997E1  -5.631414457456825E1  
 1.040000000000000E10   -2.509853148988286E1  -5.665456276986280E1  
 1.042000000000000E10   -2.490805159900571E1  -5.732681923161455E1  
 1.044000000000000E10   -2.484314076258470E1  -5.773193806157481E1  
 1.046000000000000E10   -2.474742894034650E1  -5.705542578852904E1  
 1.048000000000000E10   -2.446178592759480E1  -5.605623483453616E1  
 1.050000000000000E10   -2.440385525883468E1  -5.629846217606060E1  
 1.052000000000000E10   -2.454405583754117E1  -5.505967041639035E1  
 1.054000000000000E10   -2.453003916991553E1  -5.398922959926851E1  
 1.056000000000000E10   -2.453541798212491E1  -5.488189313507336E1  
 1.058000000000000E10   -2.461399672329101E1  -5.508268433695016E1  
 1.060000000000000E10   -2.460244962633162E1  -5.524021429847041E1  
 1.062000000000000E10   -2.450688026998911E1  -5.444666294989681E1  
 1.064000000000000E10   -2.448081135725611E1  -5.374122947176226E1  
 1.066000000000000E10   -2.458124210210055E1  -5.321348004346928E1  
 1.068000000000000E10   -2.477856100400657E1  -5.254737970544559E1  
 1.070000000000000E10   -2.503627473569586E1  -5.137548156352990E1  
 1.072000000000000E10   -2.514077304753597E1  -5.131614267713064E1  
 1.074000000000000E10   -2.531928426844162E1  -5.256299010898490E1  
 1.076000000000000E10   -2.543544220997649E1  -5.135854586289252E1  
 1.078000000000000E10   -2.554888790811884E1  -5.164497694555751E1  
 1.080000000000000E10   -2.549294443085131E1  -5.003738560040545E1  
 1.082000000000000E10   -2.569941531514282E1  -4.969159851357789E1  
 1.084000000000000E10   -2.615710207904910E1  -4.815932395578568E1  
 1.086000000000000E10   -2.646140823004615E1  -4.737501365762725E1  
 1.088000000000000E10   -2.673376683685307E1  -4.768902683718218E1  
 1.090000000000000E10   -2.697173715633501E1  -4.851577434598512E1  
 1.092000000000000E10   -2.730341243329199E1  -4.875770721715230E1  
 1.094000000000000E10   -2.742050497968491E1  -4.711991610898352E1  
 1.096000000000000E10   -2.756958312372640E1  -4.651246006865148E1  
 1.098000000000000E10   -2.784644094635154E1  -4.674401698393976E1  
 1.100000000000000E10   -2.846962132504362E1  -4.528745416305214E1  
 1.102000000000000E10   -2.886019886192074E1  -4.499315413629341E1  
 1.104000000000000E10   -2.926294097600483E1  -4.532088180089788E1  
 1.106000000000000E10   -2.975858340792969E1  -4.704366150825906E1  
 1.108000000000000E10   -2.984257266278693E1  -4.764756147841553E1  
 1.110000000000000E10   -3.010405988908465E1  -4.746124681169406E1  
 1.112000000000000E10   -3.032511437091997E1  -4.628494142878338E1  
 1.114000000000000E10   -3.075170019567752E1  -4.533975723954016E1  
 1.116000000000000E10   -3.154460842425023E1  -4.574860678598050E1  
 1.118000000000000E10   -3.220880230160771E1  -4.638863016918742E1  
 1.120000000000000E10   -3.260824934193812E1  -4.751964742188211E1  
 1.122000000000000E10   -3.304436952605581E1  -5.340114685945932E1  
 1.124000000000000E10   -3.352728569418442E1  -5.457384633191789E1  
 1.126000000000000E10   -3.354810417394121E1  -5.396826427598703E1  
 1.128000000000000E10   -3.384229565965241E1  -5.591433389740736E1  
 1.130000000000000E10   -3.452849042672749E1  -5.624060086026881E1  
 1.132000000000000E10   -3.565021065533560E1  -5.708576664973158E1  
 1.134000000000000E10   -3.610450708260478E1  -5.973428839793326E1  
 1.136000000000000E10   -3.623176057489496E1  -6.549734091188009E1  
 1.138000000000000E10   -3.657050746391986E1  -7.249043134889578E1  
 1.140000000000000E10   -3.632054741223246E1  -7.334450013473104E1  
 1.142000000000000E10   -3.641072686515332E1  -7.659928799026449E1  
 1.144000000000000E10   -3.650443498638566E1  -7.490401994622263E1  
 1.146000000000000E10   -3.687979176678154E1  -7.710653567997997E1  
 1.148000000000000E10   -3.735558409561940E1  -8.093354337956558E1  
 1.150000000000000E10   -3.806930439219286E1  -8.398644682549528E1  
 1.152000000000000E10   -3.754729556003458E1  -8.865525521448384E1  
 1.154000000000000E10   -3.674933388400338E1  -9.268976459632249E1  
 1.156000000000000E10   -3.630938095720114E1  -9.458931584367130E1  
 1.158000000000000E10   -3.641766743032925E1  -9.195247641100423E1  
 1.160000000000000E10   -3.610156672982040E1  -9.007739091734516E1  
 1.162000000000000E10   -3.650394210023691E1  -9.333032141184195E1  
 1.164000000000000E10   -3.655899245834326E1  -9.359152144357896E1  
 1.166000000000000E10   -3.606991626551666E1  -9.640230262257062E1  
 1.168000000000000E10   -3.552115701337810E1  -1.000130042513729E2  
 1.170000000000000E10   -3.485561958915785E1  -1.003015864830792E2  
 1.172000000000000E10   -3.412272377731352E1  -9.936768632206804E1  
 1.174000000000000E10   -3.398268100316690E1  -9.553391917180069E1  
 1.176000000000000E10   -3.356527456768357E1  -9.402477677008196E1  
 1.178000000000000E10   -3.356380104203587E1  -9.299494606045195E1  
 1.180000000000000E10   -3.332368429916556E1  -9.625574394893195E1  
 1.182000000000000E10   -3.322785162763356E1  -9.783224024681283E1  
 1.184000000000000E10   -3.233704529538872E1  -9.820828571508572E1  
 1.186000000000000E10   -3.176622419836039E1  -9.872324924711671E1  
 1.188000000000000E10   -3.113440061496359E1  -9.780200461414400E1  
 1.190000000000000E10   -3.085022169324049E1  -9.449499999559352E1  
 1.192000000000000E10   -3.024065498521220E1  -9.343887410180604E1  
 1.194000000000000E10   -3.031091030705558E1  -9.291517996683979E1  
 1.196000000000000E10   -3.008262581216462E1  -9.257308879113012E1  
 1.198000000000000E10   -2.969667944205055E1  -9.416299638590965E1  
 1.200000000000000E10   -2.923041305703843E1  -9.442795561714053E1  
