#  HZ   S   DB   R     50.00 
! Rohde & Schwarz ZVA67 4Ports - Version 3.60 - 1305.7002k04 SN: 101051
! Date: 2012-04-10 11:42:05
! Measurement: S22 
! 
 8.000000000000000E9    -1.848877709717476E1  -1.709122294085706E2  
 8.020000000000000E9    -1.838513190511702E1  -1.702195254538746E2  
 8.040000000000000E9    -1.837308495306188E1  -1.700254677326999E2  
 8.060000000000000E9    -1.832718200963062E1  -1.694806841551252E2  
 8.080000000000000E9    -1.837124957251541E1  -1.693621158203902E2  
 8.100000000000000E9    -1.836932969337234E1  -1.688815535776133E2  
 8.120000000000000E9    -1.832557930573683E1  -1.691629916945561E2  
 8.140000000000000E9    -1.833751849225090E1  -1.688719059770787E2  
 8.160000000000000E9    -1.826874665185973E1  -1.685628039145387E2  
 8.180000000000000E9    -1.826677742263272E1  -1.686911511802474E2  
 8.200000000000000E9    -1.829002096415941E1  -1.685858471126550E2  
 8.220000000000000E9    -1.827377105516379E1  -1.686907428461585E2  
 8.240000000000000E9    -1.831129884917885E1  -1.692507197817046E2  
 8.260000000000000E9    -1.831207010693146E1  -1.691674408493382E2  
 8.280000000000000E9    -1.824769555168750E1  -1.696273133999753E2  
 8.300000000000000E9    -1.827369579293761E1  -1.697300426376412E2  
 8.320000000000000E9    -1.830108267760830E1  -1.695661965443458E2  
 8.340000000000000E9    -1.829992337445002E1  -1.693948286798105E2  
 8.360000000000000E9    -1.828476430053318E1  -1.694267376668675E2  
 8.380000000000000E9    -1.833124802905111E1  -1.700743761371775E2  
 8.400000000000000E9    -1.837004673971383E1  -1.703039974791818E2  
 8.420000000000000E9    -1.839165547700314E1  -1.706590199622915E2  
 8.440000000000000E9    -1.847407803253137E1  -1.706518943319365E2  
 8.460000000000000E9    -1.845039187759668E1  -1.709061363863701E2  
 8.480000000000000E9    -1.861092378756240E1  -1.707243446530216E2  
 8.500000000000000E9    -1.863941863788853E1  -1.703673947638540E2  
 8.520000000000000E9    -1.868626124112343E1  -1.708505006521074E2  
 8.540000000000000E9    -1.887834836133704E1  -1.708967069717889E2  
 8.560000000000000E9    -1.886096347653649E1  -1.705653117786230E2  
 8.580000000000000E9    -1.890559563936897E1  -1.709753212356207E2  
 8.600000000000000E9    -1.897755751159135E1  -1.706783411206159E2  
 8.620000000000000E9    -1.900675406886714E1  -1.705662524391780E2  
 8.640000000000000E9    -1.911051066842983E1  -1.709845820848340E2  
 8.660000000000000E9    -1.921553731003010E1  -1.707029916755648E2  
 8.680000000000000E9    -1.923388971749459E1  -1.708427381306528E2  
 8.700000000000000E9    -1.939667222541133E1  -1.709672345913888E2  
 8.720000000000000E9    -1.945023995059563E1  -1.707771065948934E2  
 8.740000000000000E9    -1.955937020275108E1  -1.707807992157096E2  
 8.760000000000000E9    -1.951727902065091E1  -1.703986416848530E2  
 8.780000000000000E9    -1.967299034022038E1  -1.706332501969098E2  
 8.800000000000000E9    -1.977436009260213E1  -1.702955635618784E2  
 8.820000000000000E9    -1.983956436023199E1  -1.701149828831680E2  
 8.840000000000000E9    -1.998674930846817E1  -1.700533142462605E2  
 8.860000000000000E9    -2.013779484777588E1  -1.700992614847273E2  
 8.880000000000000E9    -2.020692575142974E1  -1.695351329759385E2  
 8.900000000000000E9    -2.026257755462150E1  -1.698573053543306E2  
 8.920000000000000E9    -2.043584755426928E1  -1.688554580364321E2  
 8.940000000000000E9    -2.041879778871549E1  -1.687277293847955E2  
 8.960000000000000E9    -2.057756766336429E1  -1.684361055085977E2  
 8.980000000000000E9    -2.071636202483004E1  -1.681217633831344E2  
 9.000000000000000E9    -2.074964030348196E1  -1.677642885176745E2  
 9.020000000000000E9    -2.081277858549956E1  -1.674665036843304E2  
 9.040000000000000E9    -2.080174524218914E1  -1.671154887827741E2  
 9.060000000000000E9    -2.088949904567418E1  -1.665472452800366E2  
 9.080000000000000E9    -2.088401457356825E1  -1.655697578978839E2  
 9.100000000000000E9    -2.092439135563159E1  -1.657962709563975E2  
 9.120000000000000E9    -2.106671360525785E1  -1.649565805856190E2  
 9.140000000000000E9    -2.105200111151406E1  -1.650575826872538E2  
 9.160000000000000E9    -2.110631004088506E1  -1.651818679648143E2  
 9.180000000000000E9    -2.112160034398110E1  -1.650091884672987E2  
 9.200000000000000E9    -2.107544955447667E1  -1.650174621345644E2  
 9.220000000000000E9    -2.110173665366829E1  -1.641162109157936E2  
 9.240000000000000E9    -2.106113711216159E1  -1.635334335469341E2  
 9.260000000000000E9    -2.111737615218674E1  -1.630351220776730E2  
 9.280000000000000E9    -2.114284841859796E1  -1.621663483822890E2  
 9.300000000000000E9    -2.120146562419482E1  -1.617289991352464E2  
 9.320000000000000E9    -2.120329189833383E1  -1.617076371342168E2  
 9.340000000000000E9    -2.121093796482542E1  -1.612134627373756E2  
 9.360000000000000E9    -2.118119759519602E1  -1.611127663084355E2  
 9.380000000000000E9    -2.118624382644400E1  -1.603947920229066E2  
 9.400000000000000E9    -2.118469606687204E1  -1.600184713635196E2  
 9.420000000000000E9    -2.122123164991889E1  -1.592641684088850E2  
 9.440000000000000E9    -2.121856705157578E1  -1.591808395548667E2  
 9.460000000000000E9    -2.126921023316517E1  -1.591733860346785E2  
 9.480000000000000E9    -2.121573001086924E1  -1.592847863267218E2  
 9.500000000000000E9    -2.117844417046203E1  -1.593564807945324E2  
 9.520000000000000E9    -2.106657700208009E1  -1.594285626453205E2  
 9.540000000000000E9    -2.100881239557873E1  -1.589874677268109E2  
 9.560000000000000E9    -2.095213002627401E1  -1.584336538726930E2  
 9.580000000000000E9    -2.098006855706701E1  -1.583914423106412E2  
 9.600000000000000E9    -2.102018347910101E1  -1.572191284377093E2  
 9.620000000000000E9    -2.100937318896132E1  -1.572386626237098E2  
 9.640000000000000E9    -2.104408135971585E1  -1.572923406708248E2  
 9.660000000000000E9    -2.104663340232590E1  -1.569778768884635E2  
 9.680000000000000E9    -2.103901930943769E1  -1.563691307391586E2  
 9.700000000000000E9    -2.103902087022324E1  -1.561914669651551E2  
 9.720000000000000E9    -2.102957517227516E1  -1.555364301558829E2  
 9.740000000000000E9    -2.104710625703236E1  -1.551558330424863E2  
 9.760000000000000E9    -2.105203903017059E1  -1.547929770286302E2  
 9.780000000000000E9    -2.104809893298151E1  -1.545601659754382E2  
 9.800000000000000E9    -2.109834809168848E1  -1.546409434989282E2  
 9.820000000000000E9    -2.097373207255211E1  -1.541819206874257E2  
 9.840000000000000E9    -2.090007168431918E1  -1.544948945126193E2  
 9.860000000000000E9    -2.085780126988266E1  -1.538381992425836E2  
 9.880000000000000E9    -2.083334357709178E1  -1.534919979279159E2  
 9.900000000000000E9    -2.076157360013617E1  -1.532309290348427E2  
 9.920000000000000E9    -2.081336461735625E1  -1.532702974509285E2  
 9.940000000000000E9    -2.078813678698591E1  -1.535705715414899E2  
 9.960000000000000E9    -2.074510214037042E1  -1.538599595020673E2  
 9.980000000000000E9    -2.062771519390675E1  -1.542644241970340E2  
 1.000000000000000E10   -2.056703339935814E1  -1.546800572849569E2  
 1.002000000000000E10   -2.050875785435072E1  -1.542149170929187E2  
 1.004000000000000E10   -2.046027757691509E1  -1.544235571553621E2  
 1.006000000000000E10   -2.050295851420179E1  -1.541034130008884E2  
 1.008000000000000E10   -2.048107138669718E1  -1.538646566153474E2  
 1.010000000000000E10   -2.046066908915715E1  -1.544922567099357E2  
 1.012000000000000E10   -2.040127773502093E1  -1.546725167425885E2  
 1.014000000000000E10   -2.030218263476843E1  -1.547309485467687E2  
 1.016000000000000E10   -2.022330065734100E1  -1.547174275175566E2  
 1.018000000000000E10   -2.022387770862372E1  -1.548777564867507E2  
 1.020000000000000E10   -2.012187861382051E1  -1.548020678957383E2  
 1.022000000000000E10   -2.018259993589828E1  -1.551624156474979E2  
 1.024000000000000E10   -2.020221608185413E1  -1.554766067506095E2  
 1.026000000000000E10   -2.020853288157893E1  -1.561402639179721E2  
 1.028000000000000E10   -2.014761819699831E1  -1.565307895454468E2  
 1.030000000000000E10   -2.010412377940382E1  -1.569953282159306E2  
 1.032000000000000E10   -2.000938964136310E1  -1.570774446406012E2  
 1.034000000000000E10   -2.001535963803073E1  -1.573298591053799E2  
 1.036000000000000E10   -2.001648830557956E1  -1.574503558343357E2  
 1.038000000000000E10   -2.000047635886310E1  -1.578426447722928E2  
 1.040000000000000E10   -2.004028348824102E1  -1.581527277768304E2  
 1.042000000000000E10   -2.000028704593329E1  -1.590952755499270E2  
 1.044000000000000E10   -2.001918158769691E1  -1.595516420182984E2  
 1.046000000000000E10   -1.992831694966894E1  -1.597925744209367E2  
 1.048000000000000E10   -1.989329107846249E1  -1.602720232804784E2  
 1.050000000000000E10   -1.984910431345237E1  -1.598899524452498E2  
 1.052000000000000E10   -1.991303545203585E1  -1.603910495515007E2  
 1.054000000000000E10   -1.989434892154643E1  -1.605795510784509E2  
 1.056000000000000E10   -1.989688725807161E1  -1.611957676485942E2  
 1.058000000000000E10   -1.989238261482587E1  -1.616746048475850E2  
 1.060000000000000E10   -1.980086579874133E1  -1.623137489179560E2  
 1.062000000000000E10   -1.975191858415492E1  -1.623583280908568E2  
 1.064000000000000E10   -1.971515490489732E1  -1.627284925559373E2  
 1.066000000000000E10   -1.972955657210078E1  -1.629524779442631E2  
 1.068000000000000E10   -1.973889041065018E1  -1.632638219863238E2  
 1.070000000000000E10   -1.978949820664140E1  -1.639862407615963E2  
 1.072000000000000E10   -1.979215526000305E1  -1.642305103038937E2  
 1.074000000000000E10   -1.973719603580925E1  -1.655308870826152E2  
 1.076000000000000E10   -1.975181530766870E1  -1.665592312139441E2  
 1.078000000000000E10   -1.969018022536346E1  -1.668925216460092E2  
 1.080000000000000E10   -1.967103078867492E1  -1.676307264464961E2  
 1.082000000000000E10   -1.970220960819652E1  -1.681530517648192E2  
 1.084000000000000E10   -1.975618229610986E1  -1.686108623162696E2  
 1.086000000000000E10   -1.979391654100444E1  -1.699214637769925E2  
 1.088000000000000E10   -1.983388251185017E1  -1.708198664770497E2  
 1.090000000000000E10   -1.983035433407027E1  -1.720019081078299E2  
 1.092000000000000E10   -1.977858802212216E1  -1.726737701273987E2  
 1.094000000000000E10   -1.979700231753651E1  -1.730849179551957E2  
 1.096000000000000E10   -1.981140044908717E1  -1.733929393048404E2  
 1.098000000000000E10   -1.996441175127010E1  -1.736254531401205E2  
 1.100000000000000E10   -2.003513685427325E1  -1.743396008029761E2  
 1.102000000000000E10   -2.022269913989966E1  -1.751442645573644E2  
 1.104000000000000E10   -2.034243739645494E1  -1.759391353749664E2  
 1.106000000000000E10   -2.036982211395551E1  -1.771876808138224E2  
 1.108000000000000E10   -2.043539886104905E1  -1.776994387009809E2  
 1.110000000000000E10   -2.039959204095606E1  -1.778358766825516E2  
 1.112000000000000E10   -2.045101563579470E1  -1.787598444692645E2  
 1.114000000000000E10   -2.060589249453772E1  -1.788646389505635E2  
 1.116000000000000E10   -2.066166596568293E1  -1.795873315033303E2  
 1.118000000000000E10   -2.081534979213057E1   1.792720088292165E2  
 1.120000000000000E10   -2.084279997518411E1   1.786043028302626E2  
 1.122000000000000E10   -2.089576127364428E1   1.776495571190416E2  
 1.124000000000000E10   -2.098550313347189E1   1.775331134727308E2  
 1.126000000000000E10   -2.098089595123367E1   1.775775523513302E2  
 1.128000000000000E10   -2.113450345795669E1   1.775086558858775E2  
 1.130000000000000E10   -2.129240715341494E1   1.777727415439559E2  
 1.132000000000000E10   -2.143957859867586E1   1.771384674662845E2  
 1.134000000000000E10   -2.164533761642669E1   1.769087182436414E2  
 1.136000000000000E10   -2.165037947936131E1   1.762121339896023E2  
 1.138000000000000E10   -2.175450500700751E1   1.756934896142457E2  
 1.140000000000000E10   -2.178298045065075E1   1.755498718268318E2  
 1.142000000000000E10   -2.192303218044878E1   1.764431512340433E2  
 1.144000000000000E10   -2.200734777373225E1   1.766922886464612E2  
 1.146000000000000E10   -2.225428567519434E1   1.772982825434481E2  
 1.148000000000000E10   -2.240551112480702E1   1.767023631864445E2  
 1.150000000000000E10   -2.261254803552752E1   1.761631900319521E2  
 1.152000000000000E10   -2.272012385397063E1   1.754321650524192E2  
 1.154000000000000E10   -2.275376903125235E1   1.745568385868509E2  
 1.156000000000000E10   -2.284126293559187E1   1.745517008547124E2  
 1.158000000000000E10   -2.291166619902686E1   1.748178692005697E2  
 1.160000000000000E10   -2.306001667003801E1   1.750565914527786E2  
 1.162000000000000E10   -2.331964101260988E1   1.753296635068960E2  
 1.164000000000000E10   -2.351825581701824E1   1.755341699288799E2  
 1.166000000000000E10   -2.376860232946913E1   1.740054232973051E2  
 1.168000000000000E10   -2.385637887057918E1   1.739763161720879E2  
 1.170000000000000E10   -2.390145730703468E1   1.742733009083605E2  
 1.172000000000000E10   -2.392851662493364E1   1.738358127804771E2  
 1.174000000000000E10   -2.407191772777260E1   1.753199340257526E2  
 1.176000000000000E10   -2.426514575631433E1   1.760763323246676E2  
 1.178000000000000E10   -2.457395582017714E1   1.771964948702244E2  
 1.180000000000000E10   -2.487388429261716E1   1.770160008967559E2  
 1.182000000000000E10   -2.501762650641999E1   1.770771993449265E2  
 1.184000000000000E10   -2.515861711111875E1   1.763238153301339E2  
 1.186000000000000E10   -2.516651419295164E1   1.762368122755611E2  
 1.188000000000000E10   -2.512108571484825E1   1.770719288562689E2  
 1.190000000000000E10   -2.521378717083012E1   1.786037947643403E2  
 1.192000000000000E10   -2.533731500183669E1   1.799566322237446E2  
 1.194000000000000E10   -2.556123719982337E1  -1.792245228693137E2  
 1.196000000000000E10   -2.575886139129687E1  -1.779561582790138E2  
 1.198000000000000E10   -2.581199013788341E1  -1.779476724267134E2  
 1.200000000000000E10   -2.578905342271472E1  -1.781021787858485E2  
